! TTR506A,Tektronix,B010463,Application version 2.0.1.4ead5a2e Firmware version 066185400
! 
! Freq ReS11 ImS11 ReS21 ImS21 ReS12 ImS12 ReS22 ImS22
# HZ S RI R 50
         1000000     0.098960021     -0.26260926      0.23402518     -0.98729246    0.0011193496    0.0008901728        0.636816     -0.72359849
       1002253.4     0.096593122     -0.26312765      0.23127731     -0.98800146    0.0011466793   0.00088961908      0.62882891     -0.73039428
       1004511.8     0.094370108      -0.2636449      0.22737215     -0.98842217    0.0011776555   0.00089692096      0.62024582     -0.73735032
       1006775.3     0.092119835     -0.26427925      0.22471246     -0.98868123     0.001177887   0.00087722323      0.61282817      -0.7441701
       1009043.9     0.090473774     -0.26479189      0.22174798     -0.98855881    0.0011698405   0.00084231232      0.60460153      -0.7511276
       1011317.6     0.087775449      -0.2655492      0.21822606     -0.98998233    0.0011788367    0.0008389394      0.59579139     -0.75750421
       1013596.5     0.085542575     -0.26658428      0.21480938     -0.99081687    0.0012114909   0.00084200383      0.58725233      -0.7647068
       1015880.5     0.083695961     -0.26716677      0.21184687     -0.99078234    0.0012309485   0.00083407975      0.57896157     -0.77149353
       1018169.6     0.081206394     -0.26754395      0.20878952     -0.99106911    0.0012376703   0.00080538801      0.57051449     -0.77757507
       1020463.9     0.079265292     -0.26844342       0.2063988      -0.9919567     0.001251552   0.00080769432      0.56108477       -0.783689
       1022763.4     0.076801966     -0.26877872      0.20231502      -0.9919933    0.0012466191   0.00078221377      0.55207965     -0.78987078
         1025068     0.074596152     -0.26960714      0.19938168     -0.99257363    0.0012860904   0.00078014673        0.542966     -0.79617214
       1027377.9     0.072731153     -0.27012371      0.19594556      -0.9921155    0.0012809848   0.00076815089      0.53418978      -0.8024529
       1029692.9     0.070292874     -0.27073153      0.19290855     -0.99326492    0.0013025573   0.00075320809      0.52514389     -0.80796811
       1032013.2     0.068160095     -0.27123654      0.19011727     -0.99346115    0.0012940917   0.00072950897      0.51577397     -0.81353463
       1034338.7     0.065955283     -0.27190111      0.18672569     -0.99410263    0.0013213794   0.00072648109      0.50649407     -0.81975562
       1036669.4     0.063725848      -0.2722438      0.18366063     -0.99442386    0.0013554481   0.00073761411      0.49736986     -0.82558701
       1039005.4     0.061426413     -0.27254259      0.18003187     -0.99364095    0.0013517033   0.00070706697       0.4878635     -0.83085449
       1041346.6     0.059458941     -0.27306547      0.17716667     -0.99476527    0.0013647177   0.00067949974      0.47794855     -0.83704002
       1043693.1     0.056772836     -0.27362199      0.17371513     -0.99524015    0.0014018236   0.00067736903      0.46839435     -0.84229586
       1046044.9      0.05475515     -0.27385359      0.17079969     -0.99520225    0.0014025168   0.00065733606      0.45828586     -0.84793866
         1048402      0.05272753     -0.27445324      0.16715763     -0.99562501    0.0014192259   0.00065371696      0.44829131     -0.85259238
       1050764.5     0.050078506     -0.27478413      0.16398761     -0.99549373     0.001434329   0.00064198436      0.43942436     -0.85784186
       1053132.2     0.047873369     -0.27497858      0.16051931     -0.99621198     0.001459901   0.00062268218      0.42822875     -0.86264695
       1055505.3     0.045699221     -0.27529636      0.15748312     -0.99666807    0.0014435555   0.00060237442      0.41836094     -0.86818612
       1057883.7     0.043283145     -0.27545472      0.15413277     -0.99607626    0.0014431009   0.00057662111      0.40839665     -0.87252136
       1060267.5     0.041228066     -0.27569907      0.15127383     -0.99581111    0.0014537914   0.00056556881      0.39776224     -0.87746729
       1062656.6     0.038652952     -0.27578577      0.14749136     -0.99618257    0.0014718689   0.00055239495      0.38773982     -0.88208974
       1065051.2     0.036377165     -0.27669868      0.14410804     -0.99756539    0.0014806286   0.00053096934      0.37699471     -0.88626306
       1067451.1     0.034052747      -0.2767492      0.14112536     -0.99760504    0.0014995156    0.0005185616      0.36682204     -0.89092526
       1069856.5     0.031561055     -0.27657058      0.13781677     -0.99782291    0.0015035879   0.00049219022      0.35610827     -0.89472245
       1072267.2     0.029290675     -0.27692341      0.13443245     -0.99801614    0.0015084247   0.00047836512      0.34555559     -0.89919982
       1074683.4      0.02696928     -0.27698009      0.13138397     -0.99813525    0.0015523024   0.00046897619      0.33441264     -0.90304069
       1077105.1     0.024916293     -0.27701638       0.1281511     -0.99842759    0.0015534567    0.0004566336      0.32419601     -0.90714473
       1079532.2     0.022711279     -0.27736343      0.12521087      -0.9985847    0.0015676465   0.00044068269      0.31269212      -0.9111014
       1081964.7     0.020189757     -0.27755256      0.12107229     -0.99876282    0.0016060908   0.00042744781      0.30199504     -0.91480789
       1084402.8     0.018052481     -0.27747338      0.11843409     -0.99858166    0.0015901804   0.00038657941      0.29055582     -0.91803014
       1086846.3     0.015886128     -0.27786539      0.11481427     -0.99878666    0.0016141629   0.00038448045      0.27948593     -0.92174363
       1089295.4     0.013478335     -0.27777134        0.111118     -0.99851161    0.0016170876   0.00036648333      0.26802531     -0.92499002
       1091749.9     0.011057846     -0.27755052      0.10802854     -0.99873258    0.0016329105   0.00035336568      0.25706585     -0.92815803
         1094210    0.0088585996     -0.27783391      0.10492769     -0.99991647    0.0016479671   0.00033116519      0.24556507     -0.93076596
       1096675.7    0.0067129564     -0.27801832      0.10133971     -0.99965013    0.0016508148   0.00030146739      0.23426141     -0.93319423
       1099146.8    0.0044691082     -0.27774287     0.097863967     -0.99927935    0.0016618004    0.0002916897      0.22271041     -0.93617264
       1101623.6    0.0019686124     -0.27794729     0.093957979     -0.99963165    0.0016651143   0.00026464235      0.21121278     -0.93933537
         1104106  -0.00025697117     -0.27762463     0.090778748     -0.99940101    0.0016742495   0.00025465219      0.19977643     -0.94196316
       1106593.9   -0.0025815208     -0.27801503     0.087321426     -0.99983526    0.0016873483   0.00023051776       0.1880923     -0.94340102
       1109087.4   -0.0051543385     -0.27750172      0.08383063     -0.99938708    0.0016644823    0.0001980295      0.17655003     -0.94582744
       1111586.6   -0.0071910536      -0.2776967      0.08041986     -0.99998628    0.0016987344   0.00018179284      0.16394277     -0.94809836
       1114091.4   -0.0096233009     -0.27741627     0.076997876      -0.9998688    0.0017149124   0.00016777554      0.15304717     -0.95019561
       1116601.8    -0.011961625     -0.27737521     0.073432346     -0.99967556    0.0017368856   0.00013348718      0.14077067      -0.9520736
       1119117.9    -0.014207388      -0.2770832     0.070661619      -1.0003905    0.0017260785   0.00012808687      0.12888518     -0.95322057
       1121639.7    -0.016644298     -0.27711381     0.066626817      -1.0013752    0.0017342778   0.00010125224      0.11723927      -0.9541798
       1124167.1    -0.018833851     -0.27701304     0.062994106      -1.0007097     0.001746535   7.6768855e-05      0.10564037      -0.9554947
       1126700.3    -0.021155259     -0.27677563     0.059671472      -1.0004855     0.001756636   4.3980194e-05     0.092954182     -0.95703838
       1129239.1     -0.02331007     -0.27638751     0.056007529     -0.99993614    0.0017544058   3.6145996e-05     0.080583231     -0.95797236
       1131783.7    -0.025858013     -0.27627411     0.052793088      -1.0003908    0.0017729093   6.6145192e-06      0.06861823     -0.95909627
         1134334    -0.028067721     -0.27565865     0.049348307     -0.99922255    0.0017861504  -1.4825129e-05     0.056931992     -0.96005212
       1136890.1    -0.030212244     -0.27571352     0.045785015      -1.0000385    0.0017708798  -4.0895726e-05     0.044305527     -0.96080687
       1139451.9     -0.03258703     -0.27575313     0.042553662      -1.0007919    0.0017749225  -6.9654545e-05      0.03199704     -0.96159558
       1142019.5     -0.03484136     -0.27512848     0.038883674      -1.0004971    0.0017685293  -9.1165115e-05     0.019495342     -0.96031933
       1144592.8    -0.037108638     -0.27506615     0.035387319      -1.0009765    0.0017969917  -0.00010730943    0.0072426765     -0.96150421
         1147172    -0.039344903     -0.27468359     0.032166025      -1.0007918    0.0018144698  -0.00013506196   -0.0050246132     -0.96169541
         1149757    -0.041735322     -0.27459973     0.028298232      -1.0006246    0.0018041178  -0.00015360707    -0.016924363      -0.9606456
       1152347.8    -0.044255641     -0.27399413     0.024551303      -1.0003325    0.0018026675  -0.00018732325    -0.029795567     -0.95990121
       1154944.4    -0.046365707     -0.27375526     0.021243153      -1.0003515    0.0018159982  -0.00020788269     -0.04197312      -0.9593738
       1157546.9     -0.04853107     -0.27317765     0.017646319      -1.0003694    0.0018202195  -0.00022568721     -0.05438484     -0.95894559
       1160155.3    -0.051116549     -0.27251502     0.014073656     -0.99977188    0.0018242088  -0.00025428828    -0.067242982     -0.95879175
       1162769.5    -0.053093902     -0.27234585      0.01042816     -0.99992863    0.0018333958  -0.00027855306    -0.080203805     -0.95719706
       1165389.7    -0.055483232     -0.27179944    0.0068345883     -0.99993133    0.0018512976  -0.00030701802    -0.092476521     -0.95583059
       1168015.7    -0.057729073     -0.27098404    0.0033343966     -0.99948902    0.0018422899  -0.00033257089     -0.10487848     -0.95457287
       1170647.6    -0.060186531     -0.27068659  -0.00035903526     -0.99970602     0.001817339  -0.00035309735     -0.11736559     -0.95282212
       1173285.5    -0.062384585     -0.27013248   -0.0039195025     -0.99922117    0.0018253937  -0.00039309696     -0.13038983     -0.95046497
       1175929.4    -0.064542546     -0.26979829   -0.0076631307     -0.99959505    0.0018277295  -0.00040714384     -0.14261321     -0.94913485
       1178579.1    -0.066938841     -0.26922153    -0.011227541     -0.99863735    0.0018471851  -0.00044741685     -0.15538019     -0.94698612
       1181234.9    -0.069251011     -0.26862501    -0.014488619     -0.99871515    0.0018460549  -0.00046399555      -0.1676134     -0.94458463
       1183896.6    -0.071701529     -0.26829751    -0.018731734     -0.99867772    0.0018441881  -0.00049043628     -0.18038205     -0.94220768
       1186564.4    -0.073621772      -0.2673603    -0.021779971     -0.99787426    0.0018407414  -0.00051849209     -0.19340069      -0.9392047
       1189238.1    -0.075931857     -0.26652264    -0.025752216     -0.99747576    0.0018397644  -0.00054646623     -0.20588482      -0.9364448
       1191917.9    -0.078037064     -0.26603749    -0.029155909     -0.99698983    0.0018129939   -0.0005734857     -0.21838626     -0.93335374
       1194603.7    -0.080655522     -0.26488604    -0.033109434     -0.99644376    0.0018489685   -0.0006042978     -0.23082974      -0.9303101
       1197295.6     -0.08273871     -0.26438172    -0.037038235     -0.99593928    0.0018259709  -0.00063197049     -0.24354717     -0.92684641
       1199993.5    -0.084745457     -0.26349921    -0.039620081     -0.99607804    0.0018105652  -0.00065193351     -0.25613155     -0.92393652
       1202697.5     -0.08718987     -0.26302078    -0.043978766     -0.99572288    0.0018043741  -0.00066968975     -0.26807577     -0.91996052
       1205407.6    -0.089488732     -0.26190531    -0.047722698     -0.99552845    0.0017923175  -0.00071451821     -0.28076866     -0.91593118
       1208123.8    -0.091598301     -0.26158871     -0.05141926     -0.99609546    0.0018188595  -0.00073398515     -0.29393584     -0.91130996
       1210846.1    -0.094203975     -0.26060591    -0.055438019     -0.99545349    0.0018108884  -0.00077320003     -0.30590737     -0.90710729
       1213574.6    -0.096166896     -0.25978191    -0.058818578      -0.9950348    0.0018147504  -0.00079938218     -0.31852306     -0.90271916
       1216309.2    -0.098220852     -0.25759952    -0.062222328     -0.99435783    0.0018276321  -0.00083314403     -0.32981592     -0.89678152
         1219050     -0.10017294     -0.25658248    -0.066053178     -0.99339155    0.0018109738  -0.00086640114     -0.34300916     -0.89230531
       1221796.9     -0.10269304      -0.2556934    -0.069798069     -0.99328158    0.0017987241  -0.00088766726     -0.35487933      -0.8867288
         1224550     -0.10490367     -0.25494106    -0.073353905     -0.99266327    0.0017929478  -0.00091298157     -0.36700424     -0.88217464
       1227309.4     -0.10632342     -0.25428452    -0.075584677     -0.99281198     0.001776542  -0.00094027392     -0.37912693      -0.8767278
       1230074.9     -0.10903977      -0.2528956     -0.08116011     -0.99177195    0.0017919869  -0.00098051086     -0.39157367     -0.87067063
       1232846.7     -0.11111364     -0.25191168    -0.084557908     -0.99143547    0.0017618072   -0.0010016272     -0.40335408     -0.86504627
       1235624.8     -0.11342182      -0.2507944    -0.088384729     -0.99150936    0.0017421959   -0.0010252664     -0.41549929      -0.8594541
       1238409.1     -0.11524355     -0.25012748    -0.091719445      -0.9909243    0.0017514487   -0.0010587849     -0.42729826     -0.85267082
       1241199.6     -0.11750161     -0.24903257    -0.095927671     -0.99004957    0.0017370151   -0.0010973421     -0.43865999     -0.84631937
       1243996.5     -0.11975771     -0.24749531    -0.099613363     -0.98883705    0.0017330944   -0.0011270579     -0.45117247     -0.84020264
       1246799.7     -0.12186763     -0.24687332     -0.10344247      -0.9893323    0.0016995782   -0.0011441218     -0.46264293     -0.83316636
       1249609.1     -0.12388006     -0.24562966     -0.10741225     -0.98907873    0.0016982392   -0.0011741376      -0.4739516     -0.82679682
       1252424.9     -0.12613933     -0.24464431      -0.1110902     -0.98859774    0.0017124555   -0.0012134027     -0.48574171     -0.81952237
       1255247.1     -0.12823398     -0.24329399     -0.11515622     -0.98769076    0.0016824533    -0.001240894      -0.4973284     -0.81254441
       1258075.6     -0.13030303     -0.24182506     -0.11894597     -0.98688862    0.0016567066   -0.0012635157     -0.50959014     -0.80490334
       1260910.5     -0.13235727     -0.24080172      -0.1227868     -0.98592906    0.0016511737   -0.0012775054     -0.52018109     -0.79684822
       1263751.8     -0.13418087     -0.23950107     -0.12645143     -0.98498878    0.0016322999   -0.0013084891     -0.53168861     -0.78976709
       1266599.5     -0.13646339      -0.2384621     -0.13000567     -0.98505924    0.0016235544   -0.0013383761     -0.54278456     -0.78129821
       1269453.5     -0.13855585     -0.23735606       -0.134103     -0.98492203    0.0016286983   -0.0013803796     -0.55336849     -0.77263632
       1272314.1     -0.14051457     -0.23585928     -0.13793145      -0.9835208    0.0016174083   -0.0014259333     -0.56449228     -0.76490632
         1275181     -0.14251794     -0.23478077     -0.14161374     -0.98327831    0.0016018367   -0.0014581406     -0.57561677     -0.75684261
       1278054.5     -0.14478388     -0.23300205     -0.14547265     -0.98153706    0.0015832477   -0.0014737578     -0.58677574     -0.74797801
       1280934.4      -0.1465058     -0.23200015     -0.14905835      -0.9817431    0.0015606017   -0.0015106452     -0.59714435      -0.7388882
       1283820.8     -0.14856453     -0.23033267     -0.15357945     -0.98072163    0.0015612165    -0.001539429     -0.60796353     -0.73009067
       1286713.7     -0.15053787     -0.22891096     -0.15740635     -0.97949715    0.0015468125   -0.0015819315      -0.6177381     -0.72087468
       1289613.1     -0.15240774     -0.22768677     -0.16068739     -0.97891912    0.0015140088   -0.0015906524     -0.62848183     -0.71141875
         1292519     -0.15451823     -0.22641914     -0.16479272     -0.97800881      0.00149314    -0.001611734      -0.6391567     -0.70232148
       1295431.5     -0.15647358     -0.22480218     -0.16898032     -0.97758272    0.0014752011   -0.0016521125     -0.64918825     -0.69277488
       1298350.6     -0.15820672     -0.22350044     -0.17263711     -0.97666506    0.0014518181   -0.0016724592     -0.65926687     -0.68240797
       1301276.2     -0.16019795     -0.22202018     -0.17663165     -0.97586014    0.0014144875   -0.0017001594     -0.66881967     -0.67233021
       1304208.5     -0.16209228     -0.22034925     -0.18091291     -0.97497685    0.0013994167   -0.0017272106     -0.67854251     -0.66282232
       1307147.3      -0.1640481     -0.21868271     -0.18416417     -0.97363578    0.0013730008   -0.0017373986     -0.68858772     -0.65248722
       1310092.8     -0.16591735     -0.21713381     -0.18802583     -0.97262913    0.0013445831   -0.0017653315     -0.69822369     -0.64153479
       1313044.9     -0.16765043     -0.21545183     -0.19202744      -0.9723981    0.0013314543   -0.0017922807     -0.70709995     -0.63095444
       1316003.6     -0.16950654     -0.21383178     -0.19607998     -0.97126448     0.001315167   -0.0018221334     -0.71612478     -0.61949773
         1318969     -0.17151126     -0.21251504     -0.19994176     -0.97008448    0.0013021442   -0.0018599125     -0.72509243     -0.60877487
       1321941.1     -0.17331282     -0.21091637     -0.20422273     -0.96987111    0.0012813827   -0.0018953555     -0.73500844     -0.59759435
       1324919.9     -0.17519563     -0.20916292     -0.20779751     -0.96836059    0.0012456628   -0.0019217562      -0.7431346     -0.58628937
       1327905.5     -0.17682969     -0.20745152     -0.21187977      -0.9681195    0.0012332085   -0.0019499306     -0.75185487     -0.57514276
       1330897.7     -0.17864114     -0.20575746     -0.21593321     -0.96633981    0.0012003984   -0.0019757337     -0.76033405     -0.56331586
       1333896.7     -0.18062547     -0.20427824     -0.22013234     -0.96528479    0.0011872233   -0.0020017868     -0.76810758     -0.55127774
       1336902.4     -0.18192194     -0.20215097     -0.22395193     -0.96446165     0.001133477   -0.0020121561     -0.77625312     -0.53928749
       1339914.9       -0.183744      -0.2004474     -0.22769948     -0.96377553    0.0011087365   -0.0020358093      -0.7840906     -0.52701417
       1342934.2      -0.1854302     -0.19859501     -0.23183448     -0.96187053    0.0010799497   -0.0020621602     -0.79208148     -0.51466597
       1345960.3      -0.1871371     -0.19645308     -0.23595538     -0.96047434    0.0010625397    -0.002096897     -0.79986025     -0.50278684
       1348993.2     -0.18884482     -0.19482551     -0.23956122     -0.95925693    0.0010172403   -0.0020968177     -0.80752071     -0.49052305
         1352033     -0.19054658     -0.19324893     -0.24410636      -0.9592974    0.0010074261    -0.002139833     -0.81468055     -0.47749305
       1355079.6     -0.19227147     -0.19114209     -0.24791545     -0.95719746   0.00096128461   -0.0021416483     -0.82124381      -0.4648353
