! TTR506A,Tektronix,B010463,Application version 2.0.1.4ead5a2e Firmware version 066185400
! 
! Freq ReS11 ImS11 ReS21 ImS21 ReS12 ImS12 ReS22 ImS22
# HZ S RI R 50
         1000000     0.098840368      -0.2621842       0.2343202     -0.98748408    0.0011193496    0.0008901728        0.636816     -0.72359849
       1002253.4     0.096309758      -0.2628063      0.23122716     -0.98740494    0.0011466793   0.00088961908      0.62882891     -0.73039428
       1004511.8     0.094508506     -0.26372861      0.22770528     -0.98771119    0.0011776555   0.00089692096      0.62024582     -0.73735032
       1006775.3     0.092199019     -0.26449578      0.22447559     -0.98858013     0.001177887   0.00087722323      0.61282817      -0.7441701
       1009043.9     0.090234963     -0.26503795      0.22096931     -0.98915147    0.0011698405   0.00084231232      0.60460153      -0.7511276
       1011317.6     0.087977139     -0.26545508      0.21803942     -0.98918138    0.0011788367    0.0008389394      0.59579139     -0.75750421
       1013596.5     0.085867706     -0.26637619      0.21531966     -0.98987006    0.0012114909   0.00084200383      0.58725233      -0.7647068
       1015880.5     0.083440799     -0.26710393      0.21131366     -0.99056303    0.0012309485   0.00083407975      0.57896157     -0.77149353
       1018169.6     0.081283438     -0.26760195       0.2086629     -0.99097832    0.0012376703   0.00080538801      0.57051449     -0.77757507
       1020463.9     0.079010119     -0.26826064      0.20572866     -0.99072262     0.001251552   0.00080769432      0.56108477       -0.783689
       1022763.4     0.077129265     -0.26900062       0.2022202     -0.99132186    0.0012466191   0.00078221377      0.55207965     -0.78987078
         1025068     0.074542761     -0.26949124      0.19940963     -0.99160423    0.0012860904   0.00078014673        0.542966     -0.79617214
       1027377.9      0.07243935     -0.27006174      0.19595988     -0.99241956    0.0012809848   0.00076815089      0.53418978      -0.8024529
       1029692.9     0.070216308     -0.27024329      0.19276613     -0.99212101    0.0013025573   0.00075320809      0.52514389     -0.80796811
       1032013.2     0.068030287     -0.27121473      0.19036254     -0.99264372    0.0012940917   0.00072950897      0.51577397     -0.81353463
       1034338.7     0.065951407     -0.27135552      0.18674996     -0.99278851    0.0013213794   0.00072648109      0.50649407     -0.81975562
       1036669.4     0.063697273     -0.27200035      0.18357118     -0.99404097    0.0013554481   0.00073761411      0.49736986     -0.82558701
       1039005.4     0.061406282     -0.27249533      0.18012325     -0.99351725    0.0013517033   0.00070706697       0.4878635     -0.83085449
       1041346.6     0.059197269     -0.27301248      0.17670177     -0.99371131    0.0013647177   0.00067949974      0.47794855     -0.83704002
       1043693.1     0.056817198     -0.27318974      0.17354037     -0.99385719    0.0014018236   0.00067736903      0.46839435     -0.84229586
       1046044.9     0.054885994     -0.27420584      0.17065106     -0.99498612    0.0014025168   0.00065733606      0.45828586     -0.84793866
         1048402     0.052372518     -0.27433598      0.16716001     -0.99511696    0.0014192259   0.00065371696      0.44829131     -0.85259238
       1050764.5     0.050054854     -0.27454484      0.16390244     -0.99525326     0.001434329   0.00064198436      0.43942436     -0.85784186
       1053132.2     0.048084772      -0.2752638      0.16039017     -0.99593039     0.001459901   0.00062268218      0.42822875     -0.86264695
       1055505.3     0.045431988     -0.27532483       0.1570324     -0.99599608    0.0014435555   0.00060237442      0.41836094     -0.86818612
       1057883.7     0.043379204     -0.27572169      0.15404867     -0.99619133    0.0014431009   0.00057662111      0.40839665     -0.87252136
       1060267.5     0.040877034     -0.27597801      0.15084744     -0.99605296    0.0014537914   0.00056556881      0.39776224     -0.87746729
       1062656.6     0.038571951     -0.27641566      0.14715711     -0.99694983    0.0014718689   0.00055239495      0.38773982     -0.88208974
       1065051.2     0.036390686     -0.27660242      0.14396051     -0.99699357    0.0014806286   0.00053096934      0.37699471     -0.88626306
       1067451.1     0.034037958     -0.27636678      0.14052073     -0.99735202    0.0014995156    0.0005185616      0.36682204     -0.89092526
       1069856.5      0.03144741     -0.27661464       0.1371845     -0.99732331    0.0015035879   0.00049219022      0.35610827     -0.89472245
       1072267.2     0.029270626     -0.27657633      0.13490716     -0.99821776    0.0015084247   0.00047836512      0.34555559     -0.89919982
       1074683.4     0.027501531     -0.27648353      0.13166255     -0.99763922    0.0015523024   0.00046897619      0.33441264     -0.90304069
       1077105.1     0.024880534     -0.27700703      0.12777283     -0.99868704    0.0015534567    0.0004566336      0.32419601     -0.90714473
       1079532.2     0.022648075     -0.27725807      0.12431013     -0.99895775    0.0015676465   0.00044068269      0.31269212      -0.9111014
       1081964.7     0.020409238     -0.27719285      0.12115382     -0.99881607    0.0016060908   0.00042744781      0.30199504     -0.91480789
       1084402.8     0.017981846      -0.2771778      0.11785325     -0.99865637    0.0015901804   0.00038657941      0.29055582     -0.91803014
       1086846.3     0.015792684     -0.27778717      0.11461786     -0.99893711    0.0016141629   0.00038448045      0.27948593     -0.92174363
       1089295.4     0.013352861     -0.27759745      0.11106398     -0.99878449    0.0016170876   0.00036648333      0.26802531     -0.92499002
       1091749.9     0.011245833     -0.27747354      0.10796587     -0.99884957    0.0016329105   0.00035336568      0.25706585     -0.92815803
         1094210    0.0087966278     -0.27762547      0.10456486     -0.99934728    0.0016479671   0.00033116519      0.24556507     -0.93076596
       1096675.7    0.0065879469     -0.27754259      0.10120257     -0.99964403    0.0016508148   0.00030146739      0.23426141     -0.93319423
       1099146.8    0.0042365494     -0.27732492     0.097722824     -0.99937824    0.0016618004    0.0002916897      0.22271041     -0.93617264
       1101623.6    0.0020067177      -0.2780151     0.094061259     -0.99995068    0.0016651143   0.00026464235      0.21121278     -0.93933537
         1104106  -0.00042955712     -0.27742954     0.090545829     -0.99927394    0.0016742495   0.00025465219      0.19977643     -0.94196316
       1106593.9   -0.0026968803     -0.27764169     0.087206292     -0.99965642    0.0016873483   0.00023051776       0.1880923     -0.94340102
       1109087.4   -0.0050869588     -0.27751233     0.084111238     -0.99987398    0.0016644823    0.0001980295      0.17655003     -0.94582744
       1111586.6   -0.0072276951     -0.27745996     0.080479389     -0.99967819    0.0016987344   0.00018179284      0.16394277     -0.94809836
       1114091.4   -0.0096117387     -0.27709297     0.077049887     -0.99979636    0.0017149124   0.00016777554      0.15304717     -0.95019561
       1116601.8    -0.011945921     -0.27724387     0.073823678      -1.0004315    0.0017368856   0.00013348718      0.14077067      -0.9520736
       1119117.9     -0.01417541     -0.27738874     0.070370354      -1.0001852    0.0017260785   0.00012808687      0.12888518     -0.95322057
       1121639.7     -0.01661502     -0.27691179     0.066703775      -1.0001223    0.0017342778   0.00010125224      0.11723927      -0.9541798
       1124167.1     -0.01888254     -0.27686871     0.063039713      -1.0001585     0.001746535   7.6768855e-05      0.10564037      -0.9554947
       1126700.3    -0.021175029     -0.27660171     0.059602146      -1.0005549     0.001756636   4.3980194e-05     0.092954182     -0.95703838
       1129239.1    -0.023342956     -0.27657123     0.056240536      -1.0008803    0.0017544058   3.6145996e-05     0.080583231     -0.95797236
       1131783.7    -0.025556639     -0.27617534     0.052783772      -1.0005664    0.0017729093   6.6145192e-06      0.06861823     -0.95909627
         1134334    -0.028044072     -0.27584653     0.049260392      -1.0007995    0.0017861504  -1.4825129e-05     0.056931992     -0.96005212
       1136890.1     -0.03044919     -0.27564995     0.045539418      -1.0016159    0.0017708798  -4.0895726e-05     0.044305527     -0.96080687
       1139451.9    -0.032538783     -0.27536781     0.042584117       -1.001059    0.0017749225  -6.9654545e-05      0.03199704     -0.96159558
       1142019.5    -0.034802651     -0.27510825     0.039007312      -1.0004653    0.0017685293  -9.1165115e-05     0.019495342     -0.96031933
       1144592.8    -0.037132219     -0.27462149     0.035103329      -1.0002838    0.0017969917  -0.00010730943    0.0072426765     -0.96150421
         1147172    -0.039563898     -0.27454834     0.031353089      -1.0003717    0.0018144698  -0.00013506196   -0.0050246132     -0.96169541
         1149757    -0.041655215     -0.27407952     0.028466793      -1.0000324    0.0018041178  -0.00015360707    -0.016924363      -0.9606456
       1152347.8    -0.044175044     -0.27387087     0.024828713     -0.99995524    0.0018026675  -0.00018732325    -0.029795567     -0.95990121
       1154944.4     -0.04633821     -0.27323992     0.020468958     -0.99986202    0.0018159982  -0.00020788269     -0.04197312      -0.9593738
       1157546.9    -0.048591132     -0.27288826     0.017681418      -1.0002206    0.0018202195  -0.00022568721     -0.05438484     -0.95894559
       1160155.3    -0.051217328     -0.27278591     0.013480295     -0.99991935    0.0018242088  -0.00025428828    -0.067242982     -0.95879175
       1162769.5    -0.053552288     -0.27191356     0.009738829     -0.99956392    0.0018333958  -0.00027855306    -0.080203805     -0.95719706
       1165389.7    -0.055393837      -0.2715255    0.0063991908     -0.99854041    0.0018512976  -0.00030701802    -0.092476521     -0.95583059
       1168015.7    -0.057813075     -0.27138713    0.0030679923     -0.99887191    0.0018422899  -0.00033257089     -0.10487848     -0.95457287
       1170647.6    -0.059946801     -0.27066815  -0.00051252189     -0.99894022     0.001817339  -0.00035309735     -0.11736559     -0.95282212
       1173285.5    -0.062474622     -0.27040096   -0.0039225659     -0.99842878    0.0018253937  -0.00039309696     -0.13038983     -0.95046497
       1175929.4    -0.064547674     -0.26947014   -0.0076051714      -0.9986572    0.0018277295  -0.00040714384     -0.14261321     -0.94913485
       1178579.1    -0.066864671     -0.26887177    -0.010961376     -0.99824173    0.0018471851  -0.00044741685     -0.15538019     -0.94698612
       1181234.9    -0.069196819     -0.26836623    -0.015161051     -0.99818811    0.0018460549  -0.00046399555      -0.1676134     -0.94458463
       1183896.6    -0.071471551     -0.26772703    -0.018357269     -0.99767358    0.0018441881  -0.00049043628     -0.18038205     -0.94220768
       1186564.4     -0.07385946     -0.26729138    -0.021897767      -0.9977966    0.0018407414  -0.00051849209     -0.19340069      -0.9392047
       1189238.1    -0.076051322     -0.26663441    -0.025900401     -0.99769254    0.0018397644  -0.00054646623     -0.20588482      -0.9364448
       1191917.9    -0.078240667     -0.26561163    -0.029035887     -0.99677439    0.0018129939   -0.0005734857     -0.21838626     -0.93335374
       1194603.7    -0.080571641     -0.26500038    -0.033120554     -0.99630596    0.0018489685   -0.0006042978     -0.23082974      -0.9303101
       1197295.6    -0.082730483     -0.26449203    -0.036343508     -0.99604444    0.0018259709  -0.00063197049     -0.24354717     -0.92684641
       1199993.5    -0.085056302     -0.26354141    -0.040135789     -0.99594364    0.0018105652  -0.00065193351     -0.25613155     -0.92393652
       1202697.5    -0.087050225     -0.26321958    -0.043899142      -0.9957725    0.0018043741  -0.00066968975     -0.26807577     -0.91996052
       1205407.6    -0.089326222     -0.26231727    -0.047301455     -0.99512078    0.0017923175  -0.00071451821     -0.28076866     -0.91593118
       1208123.8    -0.091827587     -0.26127131    -0.051469325      -0.9950698    0.0018188595  -0.00073398515     -0.29393584     -0.91130996
       1210846.1    -0.093995728     -0.26061673    -0.055177806     -0.99467253    0.0018108884  -0.00077320003     -0.30590737     -0.90710729
       1213574.6    -0.096145219     -0.25960493    -0.058756889     -0.99428465    0.0018147504  -0.00079938218     -0.31852306     -0.90271916
       1216309.2    -0.098173696     -0.25763985    -0.062653365      -0.9952376    0.0018276321  -0.00083314403     -0.32981592     -0.89678152
         1219050      -0.1001931      -0.2566765    -0.065892965     -0.99425897    0.0018109738  -0.00086640114     -0.34300916     -0.89230531
       1221796.9     -0.10261197     -0.25576565    -0.069765554     -0.99385769    0.0017987241  -0.00088766726     -0.35487933      -0.8867288
         1224550     -0.10480304       -0.254735    -0.073531305     -0.99325243    0.0017929478  -0.00091298157     -0.36700424     -0.88217464
       1227309.4      -0.1062543     -0.25380453    -0.075685848     -0.99376678     0.001776542  -0.00094027392     -0.37912693      -0.8767278
       1230074.9     -0.10940284     -0.25291031    -0.081518272     -0.99245895    0.0017919869  -0.00098051086     -0.39157367     -0.87067063
       1232846.7     -0.11110353     -0.25203054    -0.084943995     -0.99243612    0.0017618072   -0.0010016272     -0.40335408     -0.86504627
       1235624.8     -0.11337555     -0.25050427    -0.088887534     -0.99147511    0.0017421959   -0.0010252664     -0.41549929      -0.8594541
       1238409.1     -0.11537188     -0.24980068    -0.092246984     -0.99078639    0.0017514487   -0.0010587849     -0.42729826     -0.85267082
       1241199.6      -0.1175368     -0.24882965    -0.096232045     -0.99018372    0.0017370151   -0.0010973421     -0.43865999     -0.84631937
       1243996.5     -0.11972728     -0.24767521    -0.099940518      -0.9899919    0.0017330944   -0.0011270579     -0.45117247     -0.84020264
       1246799.7     -0.12197198     -0.24663155     -0.10390796     -0.99043096    0.0016995782   -0.0011441218     -0.46264293     -0.83316636
       1249609.1     -0.12388122     -0.24541133     -0.10729545     -0.98964345    0.0016982392   -0.0011741376      -0.4739516     -0.82679682
       1252424.9     -0.12606364     -0.24403455     -0.11116725     -0.98823153    0.0017124555   -0.0012134027     -0.48574171     -0.81952237
       1255247.1     -0.12816169     -0.24297067     -0.11559148     -0.98774214    0.0016824533    -0.001240894      -0.4973284     -0.81254441
       1258075.6     -0.13023569     -0.24178286      -0.1187451     -0.98671717    0.0016567066   -0.0012635157     -0.50959014     -0.80490334
       1260910.5     -0.13231056     -0.24062795     -0.12302121     -0.98693905    0.0016511737   -0.0012775054     -0.52018109     -0.79684822
       1263751.8     -0.13443851     -0.23970594     -0.12660299     -0.98669144    0.0016322999   -0.0013084891     -0.53168861     -0.78976709
       1266599.5      -0.1364173     -0.23805233     -0.13054043     -0.98561959    0.0016235544   -0.0013383761     -0.54278456     -0.78129821
       1269453.5     -0.13829765     -0.23673613     -0.13401186     -0.98478978    0.0016286983   -0.0013803796     -0.55336849     -0.77263632
       1272314.1      -0.1404189     -0.23563423     -0.13771464     -0.98392544    0.0016174083   -0.0014259333     -0.56449228     -0.76490632
         1275181      -0.1424454     -0.23435462     -0.14198045     -0.98304947    0.0016018367   -0.0014581406     -0.57561677     -0.75684261
       1278054.5     -0.14450141     -0.23313909     -0.14545333     -0.98263385    0.0015832477   -0.0014737578     -0.58677574     -0.74797801
       1280934.4     -0.14653054      -0.2315583     -0.14972136     -0.98238303    0.0015606017   -0.0015106452     -0.59714435      -0.7388882
       1283820.8     -0.14856591     -0.23015959     -0.15304686     -0.98067218    0.0015612165    -0.001539429     -0.60796353     -0.73009067
       1286713.7     -0.15058093     -0.22908364     -0.15723919     -0.98063098    0.0015468125   -0.0015819315      -0.6177381     -0.72087468
       1289613.1     -0.15272894     -0.22764086     -0.16143527     -0.97919539    0.0015140088   -0.0015906524     -0.62848183     -0.71141875
         1292519     -0.15433505      -0.2260343     -0.16534409     -0.97864513      0.00149314    -0.001611734      -0.6391567     -0.70232148
       1295431.5     -0.15644012     -0.22460303     -0.16882569     -0.97731467    0.0014752011   -0.0016521125     -0.64918825     -0.69277488
       1298350.6     -0.15813074     -0.22301979     -0.17272175     -0.97744644    0.0014518181   -0.0016724592     -0.65926687     -0.68240797
       1301276.2     -0.16013595     -0.22184743     -0.17660431     -0.97627957    0.0014144875   -0.0017001594     -0.66881967     -0.67233021
       1304208.5      -0.1621064     -0.22046028     -0.18014654     -0.97473574    0.0013994167   -0.0017272106     -0.67854251     -0.66282232
       1307147.3     -0.16401256     -0.21852198     -0.18455285     -0.97336402    0.0013730008   -0.0017373986     -0.68858772     -0.65248722
       1310092.8     -0.16583559     -0.21707995     -0.18822657     -0.97265326    0.0013445831   -0.0017653315     -0.69822369     -0.64153479
       1313044.9     -0.16783469     -0.21529183     -0.19235931     -0.97203947    0.0013314543   -0.0017922807     -0.70709995     -0.63095444
       1316003.6     -0.16980189      -0.2139328     -0.19635149     -0.97169708     0.001315167   -0.0018221334     -0.71612478     -0.61949773
         1318969     -0.17131688     -0.21225565     -0.20027039     -0.97086721    0.0013021442   -0.0018599125     -0.72509243     -0.60877487
       1321941.1     -0.17314304     -0.21051212     -0.20375127     -0.96997484    0.0012813827   -0.0018953555     -0.73500844     -0.59759435
       1324919.9     -0.17478889      -0.2089184     -0.20787735     -0.96869954    0.0012456628   -0.0019217562      -0.7431346     -0.58628937
       1327905.5     -0.17687366     -0.20710334     -0.21214339      -0.9672703    0.0012332085   -0.0019499306     -0.75185487     -0.57514276
       1330897.7     -0.17885301     -0.20541142     -0.21624221     -0.96656494    0.0012003984   -0.0019757337     -0.76033405     -0.56331586
       1333896.7      -0.1802804     -0.20369827      -0.2200356     -0.96518075    0.0011872233   -0.0020017868     -0.76810758     -0.55127774
       1336902.4     -0.18199042     -0.20229682     -0.22375075     -0.96481118     0.001133477   -0.0020121561     -0.77625312     -0.53928749
       1339914.9     -0.18385177     -0.20034275     -0.22814957     -0.96306158    0.0011087365   -0.0020358093      -0.7840906     -0.52701417
       1342934.2     -0.18541077     -0.19852055     -0.23180997     -0.96178748    0.0010799497   -0.0020621602     -0.79208148     -0.51466597
       1345960.3     -0.18737049     -0.19680218     -0.23578826     -0.96117885    0.0010625397    -0.002096897     -0.79986025     -0.50278684
       1348993.2       -0.188916     -0.19507152     -0.23985897     -0.96004416    0.0010172403   -0.0020968177     -0.80752071     -0.49052305
         1352033      -0.1904274     -0.19289496     -0.24357088     -0.95848688    0.0010074261    -0.002139833     -0.81468055     -0.47749305
       1355079.6     -0.19228574     -0.19115492     -0.24781536     -0.95714499   0.00096128461   -0.0021416483     -0.82124381      -0.4648353
