! TTR506A,Tektronix,B010463,Application version 2.0.1.4ead5a2e Firmware version 066185400
! 
! Freq ReS11 ImS11 ReS21 ImS21 ReS12 ImS12 ReS22 ImS22
# HZ S RI R 50
        50000000      0.60495253     -0.76013994     0.001158517   0.00096954853    0.0011404527   0.00090524099      0.63720262     -0.72377291
        50146634      0.59583354     -0.76651132    0.0011690839   0.00095123114      0.00117187   0.00091589846      0.62906352     -0.73087658
        50293697      0.58667152     -0.77249452    0.0011862935   0.00094853666    0.0011685882   0.00089588389      0.62113046     -0.73780965
        50441192      0.57861447     -0.77963217    0.0011995562   0.00093803048     0.001199048   0.00089503819      0.61270326     -0.74440334
        50589120      0.56966117     -0.78588746    0.0012171194   0.00092685761    0.0012028815   0.00088619227      0.60438352     -0.75161671
        50737481      0.56091395     -0.79248028    0.0012316424    0.0009164795    0.0012447025   0.00088025931      0.59593944     -0.75789516
        50886277      0.55215394     -0.79924698    0.0012538661   0.00091163146    0.0012297455   0.00085523136      0.58755665     -0.76412533
        51035510      0.54246857     -0.80491243    0.0012623909   0.00089228845    0.0012516136   0.00084319878      0.57892189     -0.77004607
        51185180       0.5334234     -0.81128623    0.0012822988   0.00087962963    0.0012522132   0.00083117554      0.57035448     -0.77755275
        51335290      0.52484724     -0.81777316     0.001300939   0.00087648078    0.0012662715   0.00081276897      0.56173499     -0.78411315
        51485839      0.51502487     -0.82358061    0.0013091588   0.00085440959    0.0012658565   0.00079727242      0.55304481     -0.79029974
        51636830      0.50560103     -0.82913699    0.0013281941   0.00084149265    0.0012623332   0.00076532829      0.54369289     -0.79650675
        51788264      0.49570221     -0.83453491    0.0013447386   0.00083108146    0.0012786082   0.00076622834      0.53480202     -0.80223104
        51940142      0.48637499     -0.84066043    0.0013602015   0.00081859111    0.0012991442   0.00074634414      0.52568827     -0.80850018
        52092465      0.47662846     -0.84602505    0.0013704343   0.00080662226    0.0013209319   0.00074930937      0.51603505     -0.81431187
        52245235      0.46693064     -0.85202854    0.0013863694   0.00079565499    0.0013365432   0.00073619282      0.50702345     -0.81997622
        52398454      0.45668047     -0.85721725    0.0014019051   0.00078095086    0.0013642807   0.00071966157      0.49749981     -0.82618498
        52552121       0.4465076     -0.86207666    0.0014219062   0.00076479037    0.0013620807   0.00070469492      0.48769223     -0.83120578
        52706239      0.43591451     -0.86649303    0.0014313663   0.00075574172    0.0013865034   0.00068797511      0.47773567     -0.83688286
        52860809      0.42597301     -0.87203305    0.0014547635   0.00073930383    0.0013992485   0.00068626145      0.46880803     -0.84244439
        53015833      0.41623599     -0.87740803    0.0014681841   0.00072101977    0.0014374599   0.00067512078      0.45871486     -0.84769417
        53171311      0.40501552     -0.88129132    0.0014770987   0.00070246521    0.0014538263   0.00066192685      0.44905908     -0.85295219
        53327245      0.39512505     -0.88599476    0.0014981016   0.00068873874    0.0014612479   0.00064730657      0.43887137     -0.85773427
        53483636      0.38426183     -0.89121347    0.0015082541   0.00067382775    0.0014742732   0.00063277797      0.42855802     -0.86320304
        53640486      0.37361635     -0.89553478    0.0015206545   0.00066050676    0.0014913165   0.00062327533      0.41890393     -0.86794027
        53797796      0.36337892     -0.90008026    0.0015378883   0.00064619714    0.0015060408   0.00060385008      0.40844213     -0.87346036
        53955567      0.35290001     -0.90498302    0.0015518044    0.0006312918    0.0015114733   0.00059244453      0.39825196     -0.87767767
        54113801      0.34181875     -0.90845866      0.00156967   0.00061299375    0.0014957764   0.00055899992      0.38793895     -0.88183366
        54272499       0.3306819     -0.91351036    0.0015848376   0.00059925855    0.0015186087   0.00054641273      0.37690116     -0.88620475
        54431662      0.32020957     -0.91726666     0.001598814   0.00057527259    0.0015287541   0.00052299147      0.36664574     -0.89104689
        54591292      0.30939012     -0.92064426    0.0016079028   0.00055860063    0.0015384467   0.00050878642      0.35615177     -0.89522811
        54751391      0.29776233     -0.92493296    0.0016215576   0.00053604264    0.0015660877   0.00050271085      0.34562165     -0.89946951
        54911959      0.28705104     -0.92810079    0.0016392728   0.00052265566    0.0015797186    0.0004801451      0.33457372     -0.90322817
        55072997      0.27508684     -0.93104108    0.0016506661    0.0004986409    0.0015812886   0.00046799047      0.32369962     -0.90791391
        55234508      0.26409705     -0.93462793    0.0016617621   0.00048656707    0.0016151086   0.00045129514       0.3126425     -0.91069279
        55396493       0.2524916     -0.93715792    0.0016706823   0.00046485467    0.0016121492   0.00043030051      0.30172293     -0.91481274
        55558953       0.2411994     -0.94105867     0.001680722   0.00044275804    0.0016291776   0.00041249488      0.29029332     -0.91865353
        55721889      0.22932633     -0.94292738     0.001693338   0.00042891852    0.0016298431   0.00039905662      0.27986533     -0.92240917
        55885303      0.21742883      -0.9449961    0.0017088306   0.00040382046    0.0016506328   0.00037390582      0.26870673     -0.92508543
        56049196      0.20582477     -0.94825351      0.00172081   0.00038703276    0.0016460616   0.00035194311      0.25747266     -0.92826571
        56213570      0.19398421     -0.95121215    0.0017353811   0.00036238055    0.0016591483   0.00033758671      0.24581577     -0.93138362
        56378426      0.18255127     -0.95262372    0.0017467939   0.00034571573    0.0016544134    0.0003054409      0.23436286     -0.93407735
        56543765      0.17067387     -0.95478689    0.0017593611   0.00032130324    0.0016741493   0.00029486591      0.22306197     -0.93726481
        56709590      0.15794818     -0.95678521    0.0017656573   0.00029710108    0.0017082447   0.00027753135      0.21115106     -0.93915764
        56875900      0.14686367     -0.95814862    0.0017802335   0.00027878088     0.001713436   0.00025488355      0.19964747     -0.94173333
        57042699      0.13434129     -0.95936555    0.0017904074   0.00025282083    0.0017123008   0.00024028409      0.18844564     -0.94418002
        57209986      0.12279703     -0.96116944    0.0017933826   0.00023336159    0.0017411258   0.00022004219      0.17657048     -0.94645842
        57377764       0.1100897     -0.96234947    0.0018041354   0.00020847447    0.0017279075   0.00018273867      0.16489575     -0.94856788
        57546034     0.098396576     -0.96357585    0.0018196593   0.00018204531    0.0017328304   0.00016420887      0.15272393     -0.95072663
        57714798     0.085884251      -0.9637389    0.0018260307   0.00016730182     0.001769885   0.00014382098      0.14080182     -0.95211555
        57884056     0.073937309     -0.96534202    0.0018365428   0.00014090547    0.0017734327   0.00013564432      0.12933697     -0.95359506
        58053811     0.061908457      -0.9661914    0.0018386802   0.00011158789     0.001784101   0.00010497108       0.1168609     -0.95552894
        58224064     0.049133991      -0.9659337    0.0018471296   8.8398519e-05    0.0017732876   9.4345079e-05      0.10488711     -0.95664138
        58394816     0.036696996      -0.9665285    0.0018593006   6.5256537e-05    0.0017557378   4.9242552e-05     0.093102421     -0.95818612
        58566069     0.024412119     -0.96592545    0.0018671707   3.8168661e-05    0.0017923676   3.2548304e-05     0.081001199     -0.95948418
        58737824     0.011601629     -0.96667485    0.0018812881   1.7202071e-05    0.0018091311   4.9212365e-06     0.068770455     -0.96041438
        58910083  -0.00053830734     -0.96611912    0.0018805045   -1.342279e-05    0.0017861805  -1.4575032e-05     0.056441338      -0.9600407
        59082847    -0.013069702     -0.96660671    0.0018844373  -4.0210084e-05    0.0018032797   -3.840647e-05     0.044072812     -0.96027289
        59256117     -0.02491587     -0.96565574    0.0018957713  -6.0827794e-05    0.0018204033  -5.9108756e-05     0.032101028     -0.96142484
        59429896    -0.038329682     -0.96509504    0.0018960827  -9.3825849e-05    0.0018317788  -8.5812689e-05     0.019719758     -0.96129328
        59604184    -0.050460355     -0.96397666    0.0019007891   -0.0001155781     0.001806366  -0.00010664577    0.0074881762     -0.96154376
        59778984    -0.063253347     -0.96268716    0.0019059871  -0.00014789795    0.0018282955   -0.0001344841   -0.0052986667     -0.96162149
        59954296    -0.075541024     -0.96160508    0.0019106027  -0.00016866984    0.0018175538  -0.00016313948    -0.017455037     -0.96107246
        60130122     -0.08845088     -0.96089322    0.0019128738   -0.0001956547    0.0018283562   -0.0001760724    -0.029599927     -0.96076579
        60306464     -0.10112913     -0.95993685    0.0019203177  -0.00022177375     0.001827406  -0.00019938832    -0.041987861      -0.9600368
        60483323     -0.11338491     -0.95790827    0.0019278767   -0.0002552533    0.0018101348  -0.00022498206    -0.055078433     -0.95923792
        60660701      -0.1263199     -0.95625571    0.0019234479  -0.00027482298     0.001829197  -0.00025626722    -0.067524207     -0.95808587
        60838599     -0.13921633     -0.95321572    0.0019299222  -0.00030727963    0.0018600186  -0.00028423062    -0.079851245     -0.95726657
        61017018     -0.15135388     -0.95122179    0.0019332696  -0.00033333711     0.001866764  -0.00030832355    -0.092376359     -0.95562008
        61195961     -0.16410103     -0.94883313    0.0019301095  -0.00035867005    0.0018934839  -0.00034173794      -0.1052875     -0.95406889
        61375429       -0.176711     -0.94658773    0.0019378886  -0.00038621472    0.0018773024  -0.00037165666     -0.11740075     -0.95228097
        61555423     -0.18981135     -0.94362479    0.0019303721  -0.00041511182    0.0018519416  -0.00038768274      -0.1304296     -0.95082427
        61735945     -0.20222999     -0.94108769    0.0019344554   -0.0004471026    0.0018711894  -0.00042683803     -0.14290346     -0.94939613
        61916996     -0.21533037      -0.9380197     0.001934645  -0.00046816103     0.001860185   -0.0004343326     -0.15527528      -0.9472496
        62098578     -0.22762778     -0.93482823    0.0019271648  -0.00050241749    0.0018657266  -0.00047147241     -0.16804121     -0.94478762
        62280693      -0.2403343     -0.93165512    0.0019251647  -0.00052813397    0.0018750165  -0.00049837078        -0.18061     -0.94253108
        62463342     -0.25259444     -0.92725396    0.0019209039  -0.00055925008    0.0018840429  -0.00052706267     -0.19309764     -0.93945768
        62646526     -0.26589865     -0.92602571    0.0019383881  -0.00059146912    0.0018776366  -0.00055570365      -0.2060603     -0.93679097
        62830248     -0.27879694     -0.92178902    0.0019313681  -0.00062014354    0.0018802773  -0.00057875479     -0.21846437     -0.93380849
        63014508       -0.290905     -0.91784402    0.0019348398  -0.00065487802    0.0018822271  -0.00061126596     -0.23126174     -0.93077891
        63199309     -0.30316508     -0.91331041    0.0019288914  -0.00068009513    0.0018627003  -0.00063966875     -0.24383602     -0.92687747
        63384652     -0.31606615     -0.90864976    0.0019291878  -0.00070748766    0.0018642777  -0.00066433716     -0.25608701     -0.92333314
        63570538     -0.32778447     -0.90385853     0.001927631   -0.0007438242    0.0018603647  -0.00069076934     -0.26874477     -0.91962679
        63756970     -0.34089333     -0.89865194    0.0019280525  -0.00078036342    0.0018402526  -0.00071651162     -0.28100948     -0.91584482
        63943948     -0.35269208     -0.89399909    0.0019124709   -0.0008020668    0.0018661625  -0.00076759844     -0.29322203     -0.91087624
        64131475     -0.36512487      -0.8887093    0.0019022362  -0.00083595506    0.0018294059  -0.00078432373     -0.30588357     -0.90727116
        64319551     -0.37731011     -0.88279009    0.0018944929  -0.00086563372    0.0018155597  -0.00079533123      -0.3183872     -0.90290283
        64508179     -0.38846303     -0.87509069    0.0018867165  -0.00089102145    0.0018195264  -0.00083193602     -0.33014076     -0.89650404
        64697361     -0.40023113     -0.86927053    0.0018847351  -0.00092582061    0.0018338697  -0.00086758437     -0.34225604     -0.89171364
        64887097     -0.41251371     -0.86333764    0.0018719116  -0.00095304044    0.0018120031  -0.00089039179     -0.35462753     -0.88666122
        65077389     -0.42423112     -0.85682504    0.0018601577  -0.00098218985    0.0018031509  -0.00093370372     -0.36717865     -0.88158342
        65268240      -0.4361354     -0.85101236    0.0018630095   -0.0010163592    0.0017807202  -0.00095559194     -0.37897052     -0.87684801
        65459650      -0.4479919     -0.84354164     0.001854294   -0.0010472304    0.0017778279  -0.00097742886       -0.391431     -0.87072624
        65651622      -0.4601718     -0.83708541    0.0018458501   -0.0010818722    0.0017596921   -0.0010074829     -0.40346632     -0.86502451
        65844156     -0.47203594     -0.83077205    0.0018321444   -0.0011060612    0.0017511984   -0.0010280518     -0.41563268     -0.85924808
        66037256     -0.48328573      -0.8234103    0.0018175789   -0.0011349986     0.001748505   -0.0010637515     -0.42727377     -0.85270239
        66230921      -0.4945582      -0.8164299    0.0018013908   -0.0011677755    0.0017304792    -0.001085043     -0.43971602     -0.84696877
        66425155     -0.50603602     -0.80897956    0.0017883711   -0.0011911707    0.0017425419   -0.0011304402     -0.45079683     -0.83962681
        66619958     -0.51758049     -0.80169177    0.0017744749   -0.0012266595    0.0017082455   -0.0011442441     -0.46236022     -0.83317301
        66815332     -0.52864627     -0.79276916    0.0017595434   -0.0012570868    0.0017002257   -0.0011821602     -0.47421288     -0.82636231
        67011280     -0.54038767     -0.78560392     0.001747095   -0.0012821329    0.0016750988   -0.0011899221     -0.48560997     -0.81956451
        67207802      -0.5510475     -0.77760674    0.0017379347   -0.0013196347    0.0016761383   -0.0012327354     -0.49710584     -0.81237991
        67404900     -0.56227303      -0.7698026    0.0017259729    -0.001347376    0.0016780229   -0.0012743078     -0.50843812     -0.80443271
        67602577      -0.5731701     -0.76060213    0.0017143636   -0.0013810913    0.0016768356   -0.0012967267     -0.52023767     -0.79684868
        67800833     -0.58342018      -0.7523154    0.0016947515   -0.0013988592     0.001650999   -0.0013448442     -0.53155243     -0.78882364
        67999670     -0.59475667     -0.74299175    0.0016718168   -0.0014380309    0.0016508889   -0.0013656511     -0.54270127     -0.78178249
        68199091     -0.60499403     -0.73427146    0.0016610577   -0.0014675888    0.0016243408   -0.0013918223     -0.55352237     -0.77309062
        68399097     -0.61506333     -0.72492672     0.001640509    -0.001493823    0.0016144771   -0.0014111788     -0.56488763       -0.764779
        68599689     -0.62596623      -0.7153987    0.0016264942   -0.0015247774    0.0015884116   -0.0014358475     -0.57569695     -0.75621006
        68800869     -0.63537095     -0.70584135    0.0016097717   -0.0015434038    0.0015735953   -0.0014594156     -0.58644672     -0.74773902
        69002639     -0.64599099     -0.69631597    0.0015903553   -0.0015812436    0.0015652838   -0.0015097088      -0.5968876     -0.73941424
        69205001      -0.6555801     -0.68574987    0.0015706565   -0.0016080038    0.0015652755   -0.0015347764     -0.60798479     -0.73031057
        69407957     -0.66608835     -0.67659699    0.0015496477   -0.0016358326    0.0015369941   -0.0015718016     -0.61801807     -0.72062798
        69611508     -0.67537128     -0.66602635    0.0015285373   -0.0016606435    0.0015128564   -0.0015959393     -0.62834652     -0.71188732
        69815655     -0.68487286     -0.65588703    0.0015143646   -0.0016921655    0.0014856515   -0.0016204197     -0.63860306     -0.70197072
        70020402      -0.6946451     -0.64521543    0.0014900915    -0.001716272    0.0014871587   -0.0016550455     -0.64891057     -0.69227286
        70225749     -0.70363264     -0.63438952    0.0014616834   -0.0017494574     0.001461265   -0.0016836999     -0.65891733      -0.6823917
        70431698     -0.71343619     -0.62394143    0.0014413042   -0.0017771163    0.0014487334   -0.0017140688     -0.66909272     -0.67243708
        70638251     -0.72243253     -0.61336723    0.0014209655     -0.00179615    0.0014232299    -0.001735962     -0.67875045       -0.662766
        70845409     -0.73129165     -0.60136521    0.0013941268   -0.0018264548    0.0013917184   -0.0017628426     -0.68848512     -0.65216734
        71053176     -0.74025017     -0.59085394    0.0013717567   -0.0018572358      0.00139162   -0.0017925462      -0.6976433     -0.64194559
        71261551     -0.74870024     -0.58004665    0.0013475844   -0.0018851748    0.0013463867   -0.0018240992     -0.70722361     -0.63046382
        71470538     -0.75699878     -0.56779401     0.001324585   -0.0019161725    0.0013127924   -0.0018245626     -0.71599676     -0.61990537
        71680138     -0.76504263     -0.55594802     0.001293873   -0.0019300016    0.0013018173   -0.0018458079     -0.72561682     -0.60844781
        71890352     -0.77315485     -0.54349602    0.0012738491   -0.0019617476    0.0012682583   -0.0018789104     -0.73418518     -0.59818906
        72101183     -0.78265276     -0.53329621    0.0012461753    -0.001984227    0.0012489769   -0.0019178298     -0.74260655     -0.58564894
        72312632     -0.79071205     -0.52095855    0.0012161679   -0.0020159717    0.0012283907   -0.0019391572     -0.75176636     -0.57473762
        72524701     -0.79741636     -0.50860778    0.0011886421   -0.0020310771    0.0012129555   -0.0019792786     -0.75957666     -0.56329013
        72737392      -0.8048399     -0.49594366     0.001158054   -0.0020588137    0.0011914879   -0.0020097331     -0.76839481      -0.5513648
        72950707     -0.81289322     -0.48332222    0.0011299491   -0.0020820499    0.0011521579    -0.002045838     -0.77610923     -0.53924888
        73164647     -0.81987935     -0.47139453    0.0011081504   -0.0021022209    0.0011109658   -0.0020366723     -0.78399283     -0.52663132
        73379215       -0.826965      -0.4580348     0.001071642   -0.0021220739    0.0010824591   -0.0020766395     -0.79172636     -0.51473574
        73594412     -0.83288543     -0.44475499    0.0010452349   -0.0021523388    0.0010757913   -0.0021180038     -0.79947837     -0.50260172
        73810241     -0.83981171     -0.43157998    0.0010125957   -0.0021716902    0.0010239575   -0.0021188409     -0.80635396     -0.49009119
        74026702     -0.84631966     -0.41845795   0.00098018266   -0.0021892907    0.0010036787   -0.0021620406     -0.81436605     -0.47708753
        74243798     -0.85239633     -0.40513433   0.00094917917   -0.0022084852   0.00096685991   -0.0021663103     -0.82066192     -0.46483725
