! TTR506A,Tektronix,B010463,Application version 2.0.1.4ead5a2e Firmware version 066185400
! 
! Freq ReS11 ImS11 ReS21 ImS21 ReS12 ImS12 ReS22 ImS22
# HZ S RI R 50
        50000000      0.60424157       -0.759382     0.001231396    0.0008564617    0.0011193496    0.0008901728        0.636816     -0.72359849
        50146634      0.59583472     -0.76667788    0.0012487253   0.00084961475    0.0011466793   0.00088961908      0.62882891     -0.73039428
        50293697      0.58715592     -0.77315742     0.001260186   0.00083042363    0.0011776555   0.00089692096      0.62024582     -0.73735032
        50441192      0.57908192     -0.78036655    0.0012710815   0.00082193079     0.001177887   0.00087722323      0.61282817      -0.7441701
        50589120      0.56962652     -0.78621562     0.001290806   0.00081193563    0.0011698405   0.00084231232      0.60460153      -0.7511276
        50737481      0.56126724     -0.79286463    0.0013019544   0.00079978241    0.0011788367    0.0008389394      0.59579139     -0.75750421
        50886277      0.55209641     -0.79935319    0.0013087642   0.00078643082    0.0012114909   0.00084200383      0.58725233      -0.7647068
        51035510      0.54262674      -0.8051355    0.0013267096   0.00077250468    0.0012309485   0.00083407975      0.57896157     -0.77149353
        51185180      0.53328258     -0.81162619    0.0013350145   0.00075690551    0.0012376703   0.00080538801      0.57051449     -0.77757507
        51335290      0.52395358     -0.81686813    0.0013478106   0.00074230594     0.001251552   0.00080769432      0.56108477       -0.783689
        51485839      0.51489268     -0.82399093    0.0013679927   0.00073220447    0.0012466191   0.00078221377      0.55207965     -0.78987078
        51636830      0.50583111      -0.8298088    0.0013742432   0.00071479249    0.0012860904   0.00078014673        0.542966     -0.79617214
        51788264      0.49606265     -0.83480298    0.0013945911   0.00070598515    0.0012809848   0.00076815089      0.53418978      -0.8024529
        51940142      0.48596039     -0.83999509    0.0013965054   0.00068671751    0.0013025573   0.00075320809      0.52514389     -0.80796811
        52092465       0.4766049     -0.84596146    0.0014093284   0.00067828964    0.0012940917   0.00072950897      0.51577397     -0.81353463
        52245235      0.46622336      -0.8510339    0.0014242726   0.00066291996    0.0013213794   0.00072648109      0.50649407     -0.81975562
        52398454      0.45674068     -0.85667075    0.0014306212   0.00064406584    0.0013554481   0.00073761411      0.49736986     -0.82558701
        52552121      0.44677577     -0.86263894    0.0014398704   0.00062757798    0.0013517033   0.00070706697       0.4878635     -0.83085449
        52706239      0.43661826     -0.86728524    0.0014580002    0.0006161185    0.0013647177   0.00067949974      0.47794855     -0.83704002
        52860809      0.42654907      -0.8721883    0.0014666416   0.00059322252    0.0014018236   0.00067736903      0.46839435     -0.84229586
        53015833      0.41627046     -0.87780221    0.0014768149   0.00057892067    0.0014025168   0.00065733606      0.45828586     -0.84793866
        53171311      0.40598669     -0.88211386     0.001488662   0.00056462054    0.0014192259   0.00065371696      0.44829131     -0.85259238
        53327245      0.39620158     -0.88733044    0.0015016126   0.00055465473     0.001434329   0.00064198436      0.43942436     -0.85784186
        53483636       0.3851114     -0.89161968    0.0015104063    0.0005338807     0.001459901   0.00062268218      0.42822875     -0.86264695
        53640486      0.37419698     -0.89618606    0.0015206873    0.0005184857    0.0014435555   0.00060237442      0.41836094     -0.86818612
        53797796      0.36350328     -0.90023357    0.0015332654   0.00050134808    0.0014431009   0.00057662111      0.40839665     -0.87252136
        53955567      0.35294212     -0.90528388    0.0015429267   0.00048165809    0.0014537914   0.00056556881      0.39776224     -0.87746729
        54113801      0.34194884      -0.9087602    0.0015531076   0.00046992845    0.0014718689   0.00055239495      0.38773982     -0.88208974
        54272499      0.33115965     -0.91330213     0.001563498   0.00045062824    0.0014806286   0.00053096934      0.37699471     -0.88626306
        54431662      0.32059454     -0.91754741    0.0015733137   0.00043103097    0.0014995156    0.0005185616      0.36682204     -0.89092526
        54591292      0.30914518      -0.9209712    0.0015849996   0.00041504521    0.0015035879   0.00049219022      0.35610827     -0.89472245
        54751391      0.29764989     -0.92382282    0.0015862229   0.00039516005    0.0015084247   0.00047836512      0.34555559     -0.89919982
        54911959      0.28672728      -0.9280594    0.0016032438   0.00037571745    0.0015523024   0.00046897619      0.33441264     -0.90304069
        55072997       0.2754303     -0.93059617    0.0016076567   0.00035784942    0.0015534567    0.0004566336      0.32419601     -0.90714473
        55234508      0.26388557     -0.93341277    0.0016121821    0.0003349652    0.0015676465   0.00044068269      0.31269212      -0.9111014
        55396493      0.25223215     -0.93724886    0.0016259268   0.00032389342    0.0016060908   0.00042744781      0.30199504     -0.91480789
        55558953      0.24119612      -0.9400333    0.0016259602    0.0002994632    0.0015901804   0.00038657941      0.29055582     -0.91803014
        55721889      0.22927824     -0.94296994    0.0016480157   0.00027729104    0.0016141629   0.00038448045      0.27948593     -0.92174363
        55885303      0.21786623     -0.94556333    0.0016528023   0.00026435813    0.0016170876   0.00036648333      0.26802531     -0.92499002
        56049196      0.20574892     -0.94707652    0.0016567764   0.00024761132    0.0016329105   0.00035336568      0.25706585     -0.92815803
        56213570      0.19422466     -0.94998096    0.0016659624   0.00022552317    0.0016479671   0.00033116519      0.24556507     -0.93076596
        56378426      0.18235115     -0.95154846    0.0016691508   0.00020925563    0.0016508148   0.00030146739      0.23426141     -0.93319423
        56543765      0.17035647     -0.95421013    0.0016788104   0.00019093353    0.0016618004    0.0002916897      0.22271041     -0.93617264
        56709590      0.15829851     -0.95563001    0.0016870895    0.0001711414    0.0016651143   0.00026464235      0.21121278     -0.93933537
        56875900      0.14673091     -0.95788739    0.0016948428   0.00014568655    0.0016742495   0.00025465219      0.19977643     -0.94196316
        57042699      0.13464633     -0.95947478    0.0016973129   0.00013155337    0.0016873483   0.00023051776       0.1880923     -0.94340102
        57209986      0.12256162     -0.96118234    0.0017058944   0.00010997241    0.0016644823    0.0001980295      0.17655003     -0.94582744
        57377764      0.11011231     -0.96182061    0.0017090351   8.6583974e-05    0.0016987344   0.00018179284      0.16394277     -0.94809836
        57546034     0.098224629     -0.96322824    0.0017187773   6.3929173e-05    0.0017149124   0.00016777554      0.15304717     -0.95019561
        57714798      0.08574097     -0.96406237    0.0017258425   4.1820699e-05    0.0017368856   0.00013348718      0.14077067      -0.9520736
        57884056     0.073807758     -0.96487136    0.0017323162   2.0951718e-05    0.0017260785   0.00012808687      0.12888518     -0.95322057
        58053811     0.061495919     -0.96546654    0.0017330255   2.0627862e-06    0.0017342778   0.00010125224      0.11723927      -0.9541798
        58224064     0.049180401     -0.96494117    0.0017414946  -2.1493474e-05     0.001746535   7.6768855e-05      0.10564037      -0.9554947
        58394816     0.036535468     -0.96565637    0.0017435404  -3.7324861e-05     0.001756636   4.3980194e-05     0.092954182     -0.95703838
        58566069     0.024180199     -0.96630283    0.0017456608  -7.0841751e-05    0.0017544058   3.6145996e-05     0.080583231     -0.95797236
        58737824     0.012114157     -0.96667411    0.0017503221   -8.333461e-05    0.0017729093   6.6145192e-06      0.06861823     -0.95909627
        58910083   -0.0010150515     -0.96623914    0.0017550747  -0.00010903538    0.0017861504  -1.4825129e-05     0.056931992     -0.96005212
        59082847    -0.013516168       -0.966358    0.0017538656  -0.00012855133    0.0017708798  -4.0895726e-05     0.044305527     -0.96080687
        59256117      -0.0253867     -0.96550052    0.0017567264  -0.00015702631    0.0017749225  -6.9654545e-05      0.03199704     -0.96159558
        59429896    -0.038181711      -0.9646974     0.001756672  -0.00017566621    0.0017685293  -9.1165115e-05     0.019495342     -0.96031933
        59604184    -0.051192439     -0.96409265    0.0017622289  -0.00020126134    0.0017969917  -0.00010730943    0.0072426765     -0.96150421
        59778984    -0.063128219      -0.9627254    0.0017664483  -0.00022223062    0.0018144698  -0.00013506196   -0.0050246132     -0.96169541
        59954296    -0.075551873      -0.9619746    0.0017644796  -0.00024113364    0.0018041178  -0.00015360707    -0.016924363      -0.9606456
        60130122    -0.088414157     -0.96109018    0.0017697115  -0.00026149926    0.0018026675  -0.00018732325    -0.029795567     -0.95990121
        60306464     -0.10055337     -0.95940537    0.0017680409  -0.00028655894    0.0018159982  -0.00020788269     -0.04197312      -0.9593738
        60483323     -0.11384374     -0.95688836    0.0017715153  -0.00031622406    0.0018202195  -0.00022568721     -0.05438484     -0.95894559
        60660701     -0.12575116     -0.95533468    0.0017747806  -0.00033731761    0.0018242088  -0.00025428828    -0.067242982     -0.95879175
        60838599     -0.13914715     -0.95292805    0.0017720173  -0.00035689034    0.0018333958  -0.00027855306    -0.080203805     -0.95719706
        61017018     -0.15178106     -0.95057194     0.001765093  -0.00037881874    0.0018512976  -0.00030701802    -0.092476521     -0.95583059
        61195961     -0.16431013     -0.94791591    0.0017660614  -0.00040343071    0.0018422899  -0.00033257089     -0.10487848     -0.95457287
        61375429     -0.17664388     -0.94569908    0.0017737745  -0.00042710208     0.001817339  -0.00035309735     -0.11736559     -0.95282212
        61555423     -0.18959474     -0.94312773    0.0017710831  -0.00044793173    0.0018253937  -0.00039309696     -0.13038983     -0.95046497
        61735945     -0.20189638     -0.94056382    0.0017717217  -0.00046889952    0.0018277295  -0.00040714384     -0.14261321     -0.94913485
        61916996     -0.21435991     -0.93658798    0.0017675329  -0.00050006306    0.0018471851  -0.00044741685     -0.15538019     -0.94698612
        62098578     -0.22736022     -0.93370136    0.0017764735  -0.00052229561    0.0018460549  -0.00046399555      -0.1676134     -0.94458463
        62280693     -0.23961144     -0.92988969    0.0017687652  -0.00054755976    0.0018441881  -0.00049043628     -0.18038205     -0.94220768
        62463342     -0.25245668      -0.9262919    0.0017677899  -0.00057325106    0.0018407414  -0.00051849209     -0.19340069      -0.9392047
        62646526     -0.26555968     -0.92470522    0.0017713582  -0.00059808621    0.0018397644  -0.00054646623     -0.20588482      -0.9364448
        62830248     -0.27771664     -0.92212968    0.0017629274    -0.000624452    0.0018129939   -0.0005734857     -0.21838626     -0.93335374
        63014508     -0.29049102     -0.91655697    0.0017705045  -0.00065435765    0.0018489685   -0.0006042978     -0.23082974      -0.9303101
        63199309     -0.30300201      -0.9119267     0.001766884  -0.00067455662    0.0018259709  -0.00063197049     -0.24354717     -0.92684641
        63384652     -0.31568675     -0.90826891    0.0017593355  -0.00070832928    0.0018105652  -0.00065193351     -0.25613155     -0.92393652
        63570538     -0.32774146     -0.90332635    0.0017524634  -0.00072872975    0.0018043741  -0.00066968975     -0.26807577     -0.91996052
        63756970     -0.33988563     -0.89797062    0.0017536437  -0.00074968866    0.0017923175  -0.00071451821     -0.28076866     -0.91593118
        63943948      -0.3520534     -0.89296394    0.0017453019  -0.00077993069    0.0018188595  -0.00073398515     -0.29393584     -0.91130996
        64131475     -0.36479982     -0.88808263    0.0017421706   -0.0008046268    0.0018108884  -0.00077320003     -0.30590737     -0.90710729
        64319551     -0.37658947     -0.88268708    0.0017343489  -0.00082771588    0.0018147504  -0.00079938218     -0.31852306     -0.90271916
        64508179     -0.38808264     -0.87481687     0.001736938  -0.00085548093    0.0018276321  -0.00083314403     -0.32981592     -0.89678152
        64697361     -0.40022185     -0.86853788    0.0017325124  -0.00088483635    0.0018109738  -0.00086640114     -0.34300916     -0.89230531
        64887097     -0.41203038     -0.86300992    0.0017200794  -0.00091029762    0.0017987241  -0.00088766726     -0.35487933      -0.8867288
        65077389     -0.42372667     -0.85660848    0.0017097477  -0.00093386424    0.0017929478  -0.00091298157     -0.36700424     -0.88217464
        65268240     -0.43628986     -0.85045999    0.0017047991  -0.00096356476     0.001776542  -0.00094027392     -0.37912693      -0.8767278
        65459650     -0.44800385     -0.84371086     0.001699603  -0.00098851876    0.0017919869  -0.00098051086     -0.39157367     -0.87067063
        65651622     -0.45952523     -0.83716797    0.0016907327   -0.0010105637    0.0017618072   -0.0010016272     -0.40335408     -0.86504627
        65844156     -0.47112714     -0.83028017    0.0016890718   -0.0010372387    0.0017421959   -0.0010252664     -0.41549929      -0.8594541
        66037256     -0.48307255     -0.82345128    0.0016698643   -0.0010635066    0.0017514487   -0.0010587849     -0.42729826     -0.85267082
        66230921     -0.49444449     -0.81579029    0.0016568927   -0.0010971874    0.0017370151   -0.0010973421     -0.43865999     -0.84631937
        66425155     -0.50531755     -0.80792867     0.001657941   -0.0011214068    0.0017330944   -0.0011270579     -0.45117247     -0.84020264
        66619958     -0.51679971     -0.80066864    0.0016472104   -0.0011397721    0.0016995782   -0.0011441218     -0.46264293     -0.83316636
        66815332     -0.52882888     -0.79299029    0.0016352481   -0.0011727482    0.0016982392   -0.0011741376      -0.4739516     -0.82679682
        67011280     -0.53907727     -0.78512521    0.0016266947   -0.0011975683    0.0017124555   -0.0012134027     -0.48574171     -0.81952237
        67207802     -0.55046245     -0.77722184     0.001618599   -0.0012220314    0.0016824533    -0.001240894      -0.4973284     -0.81254441
        67404900     -0.56156763     -0.76861892    0.0016001386   -0.0012455942    0.0016567066   -0.0012635157     -0.50959014     -0.80490334
        67602577     -0.57236279     -0.75995492    0.0015892407    -0.001271631    0.0016511737   -0.0012775054     -0.52018109     -0.79684822
        67800833     -0.58298167     -0.75103164    0.0015666109   -0.0012968151    0.0016322999   -0.0013084891     -0.53168861     -0.78976709
        67999670     -0.59416742     -0.74270905    0.0015559115    -0.001318359    0.0016235544   -0.0013383761     -0.54278456     -0.78129821
        68199091     -0.60485769     -0.73339624    0.0015399107   -0.0013420483    0.0016286983   -0.0013803796     -0.55336849     -0.77263632
        68399097     -0.61501122     -0.72437151    0.0015236227   -0.0013756987    0.0016174083   -0.0014259333     -0.56449228     -0.76490632
        68599689      -0.6254433     -0.71548189    0.0015100795   -0.0013922558    0.0016018367   -0.0014581406     -0.57561677     -0.75684261
        68800869     -0.63530759      -0.7056028    0.0014939596   -0.0014177401    0.0015832477   -0.0014737578     -0.58677574     -0.74797801
        69002639     -0.64538396     -0.69539405    0.0014814677   -0.0014479179    0.0015606017   -0.0015106452     -0.59714435      -0.7388882
        69205001      -0.6560841     -0.68658146    0.0014739989   -0.0014738594    0.0015612165    -0.001539429     -0.60796353     -0.73009067
        69407957     -0.66605144     -0.67622397    0.0014531599   -0.0015008112    0.0015468125   -0.0015819315      -0.6177381     -0.72087468
        69611508     -0.67563939     -0.66631731    0.0014326997   -0.0015204374    0.0015140088   -0.0015906524     -0.62848183     -0.71141875
        69815655     -0.68476136     -0.65577866    0.0014206323   -0.0015478856      0.00149314    -0.001611734      -0.6391567     -0.70232148
        70020402     -0.69438974     -0.64590098    0.0014035288    -0.001569041    0.0014752011   -0.0016521125     -0.64918825     -0.69277488
        70225749     -0.70390045      -0.6350135    0.0013914779   -0.0015976692    0.0014518181   -0.0016724592     -0.65926687     -0.68240797
        70431698     -0.71335266     -0.62414375    0.0013631095   -0.0016184951    0.0014144875   -0.0017001594     -0.66881967     -0.67233021
        70638251     -0.72214858     -0.61266295    0.0013497148   -0.0016380824    0.0013994167   -0.0017272106     -0.67854251     -0.66282232
        70845409     -0.73090004     -0.60192583    0.0013357396   -0.0016674933    0.0013730008   -0.0017373986     -0.68858772     -0.65248722
        71053176     -0.73940727     -0.59066504    0.0013139025   -0.0016876056    0.0013445831   -0.0017653315     -0.69822369     -0.64153479
        71261551     -0.74793065      -0.5787621    0.0012954459   -0.0017226904    0.0013314543   -0.0017922807     -0.70709995     -0.63095444
        71470538     -0.75659598     -0.56787792    0.0012751211   -0.0017383922     0.001315167   -0.0018221334     -0.71612478     -0.61949773
        71680138     -0.76504366     -0.55577712    0.0012582988   -0.0017681868    0.0013021442   -0.0018599125     -0.72509243     -0.60877487
        71890352     -0.77330133     -0.54390339    0.0012338897    -0.001794477    0.0012813827   -0.0018953555     -0.73500844     -0.59759435
        72101183     -0.78215707     -0.53307754    0.0012139464   -0.0018183211    0.0012456628   -0.0019217562      -0.7431346     -0.58628937
        72312632     -0.79022413     -0.52080071     0.001190684   -0.0018335243    0.0012332085   -0.0019499306     -0.75185487     -0.57514276
        72524701     -0.79757101     -0.50811759    0.0011701893   -0.0018618394    0.0012003984   -0.0019757337     -0.76033405     -0.56331586
        72737392     -0.80517249     -0.49594135    0.0011518726   -0.0018916235    0.0011872233   -0.0020017868     -0.76810758     -0.55127774
        72950707     -0.81242526     -0.48347816     0.001125886   -0.0019076262     0.001133477   -0.0020121561     -0.77625312     -0.53928749
        73164647     -0.81985502     -0.47086385    0.0010951262   -0.0019321365    0.0011087365   -0.0020358093      -0.7840906     -0.52701417
        73379215     -0.82640282     -0.45785218    0.0010704771   -0.0019461326    0.0010799497   -0.0020621602     -0.79208148     -0.51466597
        73594412     -0.83297863     -0.44457009    0.0010468173   -0.0019775446    0.0010625397    -0.002096897     -0.79986025     -0.50278684
        73810241      -0.8396705      -0.4315876    0.0010239374   -0.0019967702    0.0010172403   -0.0020968177     -0.80752071     -0.49052305
        74026702     -0.84591746     -0.41835737   0.00099261686   -0.0020232516    0.0010074261    -0.002139833     -0.81468055     -0.47749305
        74243798      -0.8522335     -0.40520723   0.00097398734   -0.0020471286   0.00096128461   -0.0021416483     -0.82124381      -0.4648353
