! TTR506A,Tektronix,B010463,Application version 2.0.1.4ead5a2e Firmware version 066185400
! 
! Freq ReS11 ImS11 ReS21 ImS21 ReS12 ImS12 ReS22 ImS22
# HZ S RI R 50
        50000000      0.60395036     -0.76011272    0.0011582538   0.00096213915    0.0011124896   0.00088473617      0.63711026     -0.72391629
        50146634      0.59605384     -0.76643401    0.0011658985   0.00096538652    0.0011536595   0.00089294333      0.62887754     -0.73132505
        50293697      0.58804372     -0.77370955    0.0011825521   0.00094975946    0.0011606915   0.00088913579      0.62066911     -0.73803432
        50441192      0.57932839     -0.78118721     0.001205786   0.00093449489    0.0011892274   0.00089066097      0.61238721     -0.74469927
        50589120      0.57088879     -0.78718065    0.0012174214   0.00092800124    0.0011868106   0.00086004307       0.6046104     -0.75150302
        50737481      0.56140153     -0.79376711    0.0012320707   0.00091523867     0.001216073   0.00086964822      0.59592837     -0.75824153
        50886277      0.55248699     -0.80007192    0.0012468481   0.00090444788    0.0012194914   0.00084628432      0.58720043     -0.76472196
        51035510      0.54327904     -0.80632711    0.0012644624   0.00089839802    0.0012454927   0.00084419534      0.57896436      -0.7714539
        51185180      0.53388453      -0.8117278    0.0012806345   0.00088633978    0.0012629114   0.00084105085      0.57009932     -0.77742638
        51335290      0.52487517     -0.81881165    0.0012938149   0.00086927561    0.0012834475   0.00083524903      0.56126186     -0.78396984
        51485839      0.51546159     -0.82466588    0.0013097855   0.00086020394    0.0012903098   0.00081013213      0.55238419     -0.79019373
        51636830      0.50592978     -0.83029314    0.0013348094   0.00084853831    0.0012934563    0.0007923662      0.54329064     -0.79590663
        51788264      0.49631458     -0.83596716    0.0013339183   0.00083406795    0.0013129922   0.00078461727      0.53389016     -0.80222709
        51940142      0.48662551      -0.8418545    0.0013552768   0.00082287452    0.0013243625   0.00077332187      0.52538082     -0.80813604
        52092465      0.47726043     -0.84672816    0.0013652018   0.00081022612    0.0013428942   0.00075959377      0.51603877      -0.8147108
        52245235      0.46693851     -0.85193569    0.0013900712    0.0007946095    0.0013524193   0.00074740444      0.50673776     -0.81994041
        52398454      0.45619003     -0.85668015    0.0014018454   0.00078555286    0.0013607465   0.00072651534      0.49712015      -0.8255731
        52552121      0.44649805     -0.86268279    0.0014130164   0.00076784554    0.0013783349   0.00071603854      0.48770712      -0.8315875
        52706239      0.43680477     -0.86751412    0.0014363093   0.00075425142    0.0014011056   0.00070035585       0.4784417     -0.83719654
        52860809      0.42685942     -0.87268779    0.0014474718   0.00073689631    0.0014192137   0.00069270205      0.46850256     -0.84293652
        53015833      0.41668509     -0.87819164    0.0014592535   0.00072216991     0.001425554    0.0006740552       0.4588277     -0.84831974
        53171311      0.40595348     -0.88241098    0.0014759639   0.00070543055    0.0014497356   0.00065878647      0.44902298      -0.8532041
        53327245      0.39601697     -0.88703793    0.0014916101   0.00069515223    0.0014678489    0.0006489388      0.43952305     -0.85851057
        53483636      0.38545779     -0.89303382    0.0015085325   0.00067284798    0.0014690012   0.00063593132      0.42872808     -0.86350591
        53640486      0.37476788     -0.89762512    0.0015233247   0.00065719943    0.0014630124   0.00060691845      0.41844993     -0.86822241
        53797796      0.36421735     -0.90139326     0.001539596    0.0006469052    0.0014920421   0.00059393752      0.40909561     -0.87340307
        53955567       0.3534996     -0.90591543    0.0015500893   0.00062769558    0.0014797813   0.00058536045      0.39795871     -0.87798241
        54113801      0.34187347     -0.90961694    0.0015631847   0.00060798731    0.0015138024   0.00057246455      0.38742768     -0.88287691
        54272499       0.3312126     -0.91288941    0.0015733538   0.00059496901    0.0015033539   0.00054466405      0.37768208     -0.88648221
        54431662      0.32040728     -0.91711967    0.0015899069   0.00058020065    0.0015122215   0.00051218669      0.36659372     -0.89091564
        54591292      0.30942613     -0.92095287    0.0016030012   0.00055245741    0.0015125643    0.0005045048      0.35626221     -0.89520633
        54751391      0.29738742      -0.9240487    0.0016141229   0.00054178109    0.0015357969   0.00048308698       0.3454699     -0.89972662
        54911959      0.28673663      -0.9273997    0.0016321937   0.00051963179    0.0015264847   0.00047107305      0.33491269     -0.90333369
        55072997      0.27538494     -0.93107246    0.0016459808   0.00049641645    0.0015772204   0.00045915494      0.32410721     -0.90722744
        55234508      0.26418328     -0.93453762    0.0016556226   0.00048248474    0.0015625324    0.0004273675      0.31257308     -0.91047328
        55396493      0.25267779      -0.9374052    0.0016663162     0.000464797    0.0015828931   0.00041903114      0.30212823     -0.91457022
        55558953      0.24110438     -0.94013473    0.0016770133   0.00044133495    0.0015972803   0.00039893225      0.29046615      -0.9179251
        55721889      0.22895736     -0.94241803    0.0016901613   0.00042295365    0.0016111338   0.00038654485      0.27973608     -0.92130081
        55885303      0.21739453     -0.94499808    0.0017083457   0.00040195769     0.001632236   0.00037380402      0.26824842     -0.92459989
        56049196      0.20595623      -0.9474115    0.0017197044   0.00037977499    0.0016531899   0.00035304604      0.25700622     -0.92800515
        56213570      0.19457169     -0.95010493    0.0017287054   0.00036610751    0.0016520145   0.00032968441      0.24587856     -0.93073231
        56378426      0.18216496     -0.95195804    0.0017372804   0.00034079939    0.0016946945   0.00031877693      0.23379449     -0.93317976
        56543765       0.1704529     -0.95387321    0.0017458298   0.00031534563    0.0016842619   0.00029309759      0.22288971     -0.93654142
        56709590      0.15866083     -0.95637189    0.0017598713    0.0002975299     0.001700554    0.0002718028      0.21131506     -0.93913087
        56875900      0.14682187     -0.95778812    0.0017715629   0.00027647861    0.0017240952   0.00025488792      0.19977203     -0.94207509
        57042699      0.13403221     -0.95919769    0.0017769977   0.00025406424    0.0017200219   0.00022938324      0.18779315     -0.94351016
        57209986      0.12186359     -0.96043091    0.0017930301   0.00022744244    0.0017203871   0.00021173517      0.17648304     -0.94654157
        57377764      0.11016747     -0.96147814    0.0017997105   0.00020493297    0.0017282357   0.00019103188      0.16442218     -0.94846659
        57546034     0.097813592     -0.96295119    0.0018040129   0.00018354654    0.0017411901   0.00016929216      0.15253039     -0.95018208
        57714798     0.085882519     -0.96329514      0.00182136   0.00015691012    0.0017517975   0.00014893332      0.14074843     -0.95217269
        57884056     0.074191746     -0.96495727    0.0018235913   0.00014034776    0.0017678979   0.00013176973      0.12872535     -0.95405818
        58053811     0.060966847     -0.96570421    0.0018311636   0.00010800156    0.0017781812   0.00010814061      0.11691001     -0.95483432
        58224064     0.048939157       -0.965527    0.0018459375   8.6285983e-05    0.0017854762   8.3000873e-05      0.10470499     -0.95615701
        58394816     0.036758376     -0.96637082    0.0018490768   6.0697464e-05    0.0017848881   5.4727404e-05     0.093039401     -0.95726462
        58566069     0.024412269     -0.96617835    0.0018556601    3.226584e-05     0.001774358    3.815242e-05     0.080991393     -0.95826537
        58737824     0.012013298     -0.96619072    0.0018658431   1.5323802e-05    0.0017785984   1.6856435e-05     0.068557823     -0.95902353
        58910083  -0.00030168253     -0.96598354    0.0018729847  -1.5393012e-05    0.0017788172  -2.1191817e-05     0.056133972     -0.95999929
        59082847    -0.013108223     -0.96511408    0.0018742133  -3.5928289e-05    0.0017883412   -2.998143e-05     0.044312524     -0.96056208
        59256117    -0.025741979     -0.96502357    0.0018880291  -5.9705161e-05    0.0018131319  -5.3890256e-05     0.032365077     -0.96126403
        59429896     -0.03789841     -0.96456071    0.0018851188  -9.1757183e-05    0.0018054692  -7.6749674e-05     0.019723515     -0.96171593
        59604184    -0.050620223      -0.9640265    0.0018948892  -0.00011174436    0.0018118191  -0.00010610149    0.0077108354     -0.96123586
        59778984    -0.063146271     -0.96238709    0.0018950385  -0.00014063513    0.0018322682  -0.00013384493   -0.0046255623     -0.96082089
        59954296    -0.075949391     -0.96208098      0.00190534   -0.0001627201    0.0018264842  -0.00016085446    -0.017286416      -0.9606156
        60130122    -0.088031973     -0.96001487     0.001905226  -0.00020092452    0.0018519071  -0.00018446283    -0.029572416     -0.96065569
        60306464     -0.10068523     -0.95878185    0.0019112812  -0.00021962199    0.0018571996  -0.00020679992    -0.042142703     -0.96002231
        60483323     -0.11389773     -0.95659316    0.0019127624  -0.00024626548    0.0018532098  -0.00024252614    -0.054753874     -0.95936716
        60660701     -0.12642382     -0.95492088    0.0019146929  -0.00027456946     0.001851148  -0.00026254992    -0.067113688     -0.95820902
        60838599     -0.13851401     -0.95287677    0.0019221472  -0.00030764724    0.0018601997   -0.0002854239    -0.079958729     -0.95676161
        61017018     -0.15205239     -0.95074368    0.0019214374  -0.00033148923    0.0018528311  -0.00030636977     -0.09228483     -0.95571894
        61195961     -0.16432007      -0.9484427    0.0019289764  -0.00035968487    0.0018511394  -0.00033975837     -0.10524353      -0.9545685
        61375429     -0.17727338     -0.94553549     0.001926222  -0.00038899787    0.0018619883  -0.00035892443     -0.11710065     -0.95238974
        61555423     -0.18967306     -0.94304193    0.0019218708  -0.00041338533    0.0018699641  -0.00039434394     -0.13058285     -0.95020867
        61735945     -0.20238672     -0.94013696    0.0019321985   -0.0004490226    0.0018973135  -0.00041832248     -0.14302556     -0.94954487
        61916996     -0.21488904      -0.9366369    0.0019315497  -0.00047247271    0.0018843452  -0.00045294972     -0.15582527     -0.94702974
        62098578     -0.22729891     -0.93356567    0.0019318022  -0.00049756647    0.0018883313  -0.00047959365     -0.16796282     -0.94437815
        62280693     -0.24002861     -0.93004078    0.0019280733  -0.00053264856    0.0018852604  -0.00050170661     -0.18070123     -0.94215466
        62463342     -0.25251026     -0.92649714    0.0019247761  -0.00055816328    0.0018723452  -0.00052765355     -0.19363976     -0.93939449
        62646526     -0.26562933     -0.92470179     0.001935512  -0.00059205583    0.0018646793  -0.00054944758     -0.20587401     -0.93575407
        62830248     -0.27787127     -0.92089604    0.0019333593  -0.00061743703    0.0018596907  -0.00058420239     -0.21835643     -0.93295342
        63014508     -0.29061431     -0.91686485    0.0019317913   -0.0006508036    0.0018762634  -0.00062343475     -0.23095651     -0.93018252
        63199309     -0.30293315     -0.91251743    0.0019321329  -0.00068734276    0.0018774367  -0.00064948123     -0.24359508     -0.92752594
        63384652     -0.31537021     -0.90751274    0.0019295501  -0.00071492746    0.0018608854  -0.00066968319     -0.25619238     -0.92306074
        63570538     -0.32788999     -0.90345431    0.0019180876  -0.00074296654    0.0018390593  -0.00068923293     -0.26886683     -0.91951556
        63756970     -0.34028155     -0.89846567    0.0019112652  -0.00077495942    0.0018460871  -0.00071447739     -0.28117851     -0.91538446
        63943948     -0.35241644     -0.89305876    0.0019106079  -0.00079750474    0.0018412323   -0.0007522993     -0.29286519     -0.91076808
        64131475     -0.36490887     -0.88802267    0.0019016656  -0.00082926644    0.0018240194  -0.00078843954     -0.30583237     -0.90705066
        64319551     -0.37684685     -0.88312896     0.001891191  -0.00085611835    0.0018122535  -0.00081215798     -0.31808826     -0.90244778
        64508179     -0.38809387     -0.87415921    0.0018912814  -0.00089719199    0.0017960009  -0.00082521456     -0.33034771     -0.89706528
        64697361     -0.40025156     -0.86887492    0.0018835781  -0.00092576737    0.0017926072  -0.00086480595     -0.34259875     -0.89185389
        64887097     -0.41234377     -0.86263456     0.001860152  -0.00094924699    0.0017932875  -0.00088726044     -0.35473561     -0.88646746
        65077389     -0.42383933     -0.85619375    0.0018648397   -0.0009869578    0.0017620214  -0.00091205016      -0.3671061     -0.88205405
        65268240     -0.43631946     -0.84981447    0.0018576111   -0.0010107377    0.0017818907  -0.00094309287     -0.37917789     -0.87672852
        65459650     -0.44838895     -0.84437128    0.0018405191   -0.0010399493    0.0017513632  -0.00096172835     -0.39119777     -0.87068549
        65651622     -0.45984201     -0.83766674     0.001825996   -0.0010724472    0.0017573098   -0.0010029754     -0.40304995     -0.86495012
        65844156     -0.47138197     -0.83035701    0.0018151243    -0.001098142    0.0017559268   -0.0010346209     -0.41577799     -0.85893484
        66037256     -0.48247596     -0.82273489    0.0018089785   -0.0011308989    0.0017500956   -0.0010522538     -0.42714772     -0.85210656
        66230921     -0.49437414     -0.81641854    0.0017965749   -0.0011574735    0.0017397975    -0.001095945     -0.43900831     -0.84606073
        66425155     -0.50582318     -0.80871392    0.0017819595   -0.0011919866     0.001728491   -0.0011198025     -0.45088409     -0.83983169
        66619958     -0.51682757     -0.80067322    0.0017694765   -0.0012198605    0.0017230935   -0.0011531722     -0.46241744     -0.83302059
        66815332     -0.52835011     -0.79305802    0.0017575389    -0.001248873    0.0017053069   -0.0011860051     -0.47487817     -0.82630907
        67011280     -0.53960308     -0.78529075    0.0017515431   -0.0012854538    0.0016866237   -0.0011986982     -0.48599203     -0.81966866
        67207802     -0.55100189     -0.77720054    0.0017330214    -0.001307834    0.0016752491   -0.0012245297     -0.49759725     -0.81233544
        67404900     -0.56140855     -0.76861177     0.001712636   -0.0013438831    0.0016587105   -0.0012613839     -0.50945363     -0.80493577
        67602577     -0.57275875     -0.76027486    0.0016982009   -0.0013736011    0.0016700246   -0.0012995008     -0.52009009     -0.79713847
        67800833      -0.5833195     -0.75103921    0.0016886239   -0.0014052815    0.0016371263   -0.0013250976     -0.53199544     -0.78953707
        67999670     -0.59434846     -0.74268737    0.0016711338   -0.0014294777    0.0016432636   -0.0013528397     -0.54286896     -0.78135332
        68199091     -0.60467498     -0.73412626    0.0016568387   -0.0014675661    0.0016055119   -0.0013810464     -0.55413054     -0.77349089
        68399097     -0.61537424     -0.72407384    0.0016467489   -0.0014975162    0.0016132047   -0.0014198587     -0.56505739     -0.76485605
        68599689       -0.625336     -0.71510095    0.0016216754   -0.0015234223     0.001581302   -0.0014411035     -0.57574569     -0.75658614
        68800869     -0.63507978     -0.70524374    0.0016064992   -0.0015404315    0.0015951126   -0.0014854842     -0.58685569     -0.74794997
        69002639     -0.64630276     -0.69636688    0.0015846485   -0.0015738815    0.0015671862   -0.0015126592     -0.59756136     -0.73951544
        69205001     -0.65587325     -0.68629454    0.0015607374   -0.0016069668    0.0015339648   -0.0015404487     -0.60783102     -0.73002457
        69407957     -0.66527303     -0.67599022    0.0015467829   -0.0016347808    0.0015238779   -0.0015509785     -0.61761666     -0.72063674
        69611508     -0.67526196     -0.66606153    0.0015235201   -0.0016591907    0.0014904868   -0.0015730554     -0.62888801      -0.7114843
        69815655     -0.68508743     -0.65539745    0.0015165163   -0.0016945976    0.0014664259   -0.0015911972     -0.63907549     -0.70207192
        70020402     -0.69409845      -0.6448831    0.0014842247   -0.0017194228    0.0014620207   -0.0016354028     -0.64931676     -0.69244824
        70225749      -0.7040116     -0.63456079    0.0014589521   -0.0017422806    0.0014479319   -0.0016621821     -0.65886685     -0.68244525
        70431698     -0.71257001     -0.62333741    0.0014371364   -0.0017663268    0.0014185589   -0.0016802364     -0.66905711     -0.67273672
        70638251     -0.72139576     -0.61267758    0.0014071895    -0.001792688     0.001397055   -0.0017146911     -0.67807718     -0.66179233
        70845409     -0.73082719     -0.60150499    0.0013902299   -0.0018189914    0.0013760887    -0.001732041     -0.68865808     -0.65201844
        71053176     -0.73941499     -0.59037907    0.0013652019   -0.0018471676    0.0013542918   -0.0017702353     -0.69841501     -0.64174466
        71261551     -0.74761101     -0.57910287    0.0013466782   -0.0018781896    0.0013207882   -0.0017875421     -0.70681833     -0.63095309
        71470538     -0.75636031     -0.56727871    0.0013069737   -0.0019022286    0.0013028993   -0.0018239415     -0.71682091     -0.62011903
        71680138     -0.76528844     -0.55595704    0.0012869042    -0.001915296    0.0012800648   -0.0018531373     -0.72572159      -0.6089825
        71890352     -0.77267677     -0.54356295    0.0012578337    -0.001953343    0.0012698317   -0.0018788341     -0.73443882     -0.59825046
        72101183     -0.78224425      -0.5325717    0.0012414932   -0.0019785426    0.0012370748    -0.001896025     -0.74294621      -0.5867439
        72312632     -0.78957436     -0.52013437    0.0012120034    -0.002003819    0.0012026574   -0.0019195223     -0.75126587     -0.57523118
        72524701     -0.79755311     -0.50856259    0.0011892724    -0.002028967    0.0011743919   -0.0019376044     -0.76006622     -0.56311222
        72737392     -0.80474525     -0.49584747    0.0011605078    -0.002048465    0.0011524386   -0.0019521887     -0.76768004     -0.55109914
        72950707     -0.81211641     -0.48319009    0.0011301168   -0.0020751865    0.0011251282   -0.0019826204     -0.77598379     -0.53912327
        73164647     -0.81964006     -0.47083477    0.0010979068   -0.0020961974    0.0011068129   -0.0020320392     -0.78405941     -0.52739928
        73379215     -0.82630143     -0.45797018    0.0010667176   -0.0021160827      0.00107309   -0.0020384532     -0.79222441     -0.51488263
        73594412     -0.83316986     -0.44499084    0.0010380915   -0.0021382976     0.001061215   -0.0020740548     -0.79963856       -0.502586
        73810241     -0.83988083      -0.4323049    0.0010085347   -0.0021657455    0.0010296974   -0.0021014722     -0.80742974     -0.49035553
        74026702     -0.84655591     -0.41854808   0.00097549534   -0.0021902487   0.00098244951    -0.002113162     -0.81422946      -0.4773497
        74243798     -0.85243376     -0.40514063   0.00094078499   -0.0022011325   0.00096150387   -0.0021586275      -0.8214827     -0.46507015
